! Touchstone Ver. 1.0 
! Number of ports is 1
# Hz	S	RI	R	100.000000
! SCATTERING PARAMETERS  :
0.00000000e+00                       1                     0  
2.00000000e+08      0.9988173745323763   0.04667093475436758  
4.00000000e+08      0.9992929396607912  -0.02596968553242678  
6.00000000e+08      0.9965811989098436  -0.07193672962518133  
8.00000000e+08      0.9923564271015028   -0.1110189404338564  
1.00000000e+09      0.9868534583088178   -0.1471230035095905  
1.20000000e+09      0.9801592403922629   -0.1815085431090655  
1.40000000e+09      0.9723315150845722    -0.214682502328504  
1.60000000e+09      0.9634208956193672   -0.2468720533362284  
1.80000000e+09      0.9534766043339762   -0.2781835366007469  
2.00000000e+09      0.9425487496038301   -0.3086612024079681  
2.20000000e+09      0.9306916092316596   -0.3383196723188996  
2.40000000e+09      0.9179645157906879    -0.367157478719174  
2.60000000e+09      0.9044345878830171   -0.3951687969470601  
2.80000000e+09      0.8901758380154677   -0.4223566695402663  
3.00000000e+09      0.8752579845019808   -0.4487431296147057  
3.20000000e+09      0.8597239092129495   -0.4743692174652669  
3.40000000e+09      0.8435744255823615   -0.4992644742752482  
3.60000000e+09      0.8267931632592267   -0.5234128678163211  
3.80000000e+09      0.8093912508438154   -0.5467605029002369  
4.00000000e+09      0.7914192455076892   -0.5692538195600128  
4.20000000e+09      0.7729473767297687   -0.5908620802024456  
4.40000000e+09       0.754046117844335   -0.6115758586553478  
4.60000000e+09      0.7347787218201647   -0.6313982385022435  
4.80000000e+09      0.7152009390842248   -0.6503382965247638  
5.00000000e+09      0.6953626846987759   -0.6684079109380082  
5.20000000e+09      0.6753095739734787   -0.6856205430442522  
5.40000000e+09       0.655083900695754   -0.7019908364013634  
5.60000000e+09      0.6347252700622503   -0.7175344989752547  
5.80000000e+09      0.6142708840900508   -0.7322682796839989  
6.00000000e+09      0.5937557224074841   -0.7462099250883715  
6.20000000e+09      0.5732126281103541   -0.7593781069998803  
6.40000000e+09      0.5526723681877941   -0.7717923376427782  
6.60000000e+09      0.5321636780003416   -0.7834728554968132  
6.80000000e+09      0.5117133082818035   -0.7944405166297415  
7.00000000e+09      0.4913460561310793   -0.8047166656124342  
7.20000000e+09       0.471084837373746   -0.8143230268656814  
7.40000000e+09      0.4509507311095609    -0.823281584608011  
7.60000000e+09      0.4309630451449079   -0.8316144756973428  
7.80000000e+09      0.4111393852648951   -0.8393438886648683  
8.00000000e+09       0.391495723773328   -0.8464919706276064  
8.20000000e+09       0.372046479122179   -0.8530807450096697  
8.40000000e+09       0.352804588459735   -0.8591320346630937  
8.60000000e+09      0.3337815871642297   -0.8646673954221131  
8.80000000e+09      0.3149876857206051   -0.8697080567088021  
9.00000000e+09      0.2964318476295029   -0.8742748708660238  
9.20000000e+09      0.2781218654072785   -0.8783882687620864  
9.40000000e+09      0.2600644351889981   -0.8820682232679764  
9.60000000e+09      0.2422652303212053   -0.8853342179464272  
9.80000000e+09      0.2247289713188874   -0.8882052228504368  
1.00000000e+10      0.2074594941716538     -0.89069967357319  
