! Touchstone Ver. 1.0 
! Number of ports is 2
# Hz	S	RI	R	50.000000	300.000000	
! SCATTERING PARAMETERS  :
4.00000000e+09     -0.5965150490537177    0.6332355062274189      1.104136967850684     1.841446541750089   -2.113466609494777e-07  5.31087055733171e-07     0.3767977385298408   -0.8892303750532298  
4.10000000e+09     -0.5621527721217193    0.6506717838435734      1.416065011209242     1.981095369038507   -1.144058000383945e-07  4.687640971839251e-07     0.3557387365172494   -0.8995167447433058  
4.20000000e+09     -0.5246030991971883    0.6668663450393453      1.793368214315252     2.108221099226085   -1.808254425363974e-09  3.61079835861892e-07     0.3346963829557082   -0.9093003372123891  
4.30000000e+09     -0.4836846593551528    0.6813195416697305      2.246813722201004     2.211133949259667   1.242033931220594e-07  1.940148093893635e-07     0.3136638096809578   -0.9186069335955301  
4.40000000e+09     -0.4391932730867014    0.6934163146626947      2.788774737730788     2.274008371637078   2.539799131690824e-07  -5.200392731445843e-08     0.2926277990760007   -0.9274650076144223  
4.50000000e+09      -0.391037577847194    0.7025453512936648      3.430142494191563      2.27477283116041   3.761680565413804e-07  -3.998569764512533e-07     0.2715681300652877   -0.9358983154319104  
4.60000000e+09     -0.3391691017938421     0.707808969344385       4.18223054695459      2.18354056254261   4.683014718328144e-07  -8.749103068568019e-07     0.2504556363153513   -0.9439317799383435  
4.70000000e+09      -0.283785799930107    0.7082557704749515      5.051322952103614     1.960908066546849   4.944038364951068e-07  -1.506761177552394e-06     0.2292514891198697    -0.951582402666578  
4.80000000e+09     -0.2252687965149817    0.7028133514213133      6.036759084507294     1.556030951310489   4.011274856614376e-07  -2.3259110273031e-06      0.207903195291677   -0.9588638696949799  
4.90000000e+09     -0.1643411024395006    0.6903809545711121      7.124908676963509    0.9049224023745587   1.156933682828205e-07  -3.355844395538806e-06     0.1863465845757471   -0.9657766155583181  
5.00000000e+09      -0.101931606392042    0.6697617796399664       8.28236487587653  -0.06862409435404564   -4.688206231687058e-07  -4.605964186529024e-06     0.1644974624559084   -0.9723068325495156  
5.10000000e+09    -0.03962032311227164    0.6400212095569817      9.444313314134003    -1.449558001966335   -1.489703586074124e-06  -6.059067074130139e-06     0.1422580565982648   -0.9784129280854543  
5.20000000e+09     0.02059868946867009     0.600288267939495      10.50343373658868    -3.325506317578312   -3.118439249722521e-06  -7.642833985366431e-06     0.1195116000531406   -0.9840206041408184  
5.30000000e+09     0.07650404061814758    0.5503877450695789      11.29843706475998    -5.767615072973006   -5.552432873002775e-06  -9.214055339722432e-06    0.09613236859792262   -0.9889961153199276  
5.40000000e+09      0.1252994549926796    0.4908733662939976      11.60320461004958    -8.807354800139004   -8.977610101687917e-06  -1.051294963049238e-05    0.07199659360729366   -0.9931332971373298  
5.50000000e+09      0.1643901040378198    0.4228782683446977      11.13061975477164    -12.39412749469099   -1.353822311305519e-05  -1.113454940958238e-05    0.04701569153864413   -0.9961285240040169  
5.60000000e+09      0.1912022951314342    0.3487876670023093      9.556138991850238    -16.34481428371966   -1.923253044524479e-05  -1.052828886874799e-05    0.02119089200427091   -0.9975658000816263  
5.70000000e+09      0.2041231996983772    0.2716888330920852      6.574358270607287    -20.30244771641767   -2.580641926781923e-05  -8.013983766359891e-06   -0.005311068707669479   -0.9969203180873386  
5.80000000e+09      0.2023682964474756    0.1956384305504373      2.012261517030202    -23.70278050443707   -3.262392357529077e-05  -2.932777015117233e-06   -0.03205076453238321   -0.9936412749624743  
5.90000000e+09      0.1867629364837727    0.1244807384104346     -4.048589781703742    -25.83560559724186   -3.862957118691991e-05  5.166180805860661e-06   -0.05825618361973406   -0.9872832064965082  
6.00000000e+09      0.1593506813544769   0.06184705529510942      -11.1307451042539    -25.98500074364001   -4.243241247332962e-05  1.617318232954499e-05    -0.0828330639875377   -0.9777625623739158  
6.10000000e+09      0.1234759300286845   0.01028292724559463     -18.37663288376815    -23.69412294476659   -4.267817220530359e-05  2.923171985793879e-05    -0.1046082434108294   -0.9655481792091095  
6.20000000e+09     0.08278879905849235  -0.02911279108378281     -24.72094627704066    -18.98963291463517   -3.851020425015981e-05  4.279166231348323e-05    -0.1226742597459675   -0.9517321983296914  
6.30000000e+09      0.0410683107972012  -0.05673794552823175     -29.25888988611619    -12.44571097810426   -2.999650944670887e-05  5.504202130207023e-05    -0.1367631187540519   -0.9377432135939869  
6.40000000e+09    0.0008209662585876291  -0.07393863788280754     -31.50149027468741    -4.980121110602975   -1.803914945413385e-05  6.446240534123152e-05    -0.1473241856315742   -0.9249382456632289  
6.50000000e+09    -0.03611485436376449  -0.08251173877457048     -31.47579095347729     2.473953300249359   -4.005057429953184e-06  7.028518296337664e-05    -0.1553017810998751   -0.9142049016173326  
6.60000000e+09    -0.06873250725094861  -0.08408620947296271     -29.56761768264285     9.221134812779647   1.075724146289002e-05  7.239597386028923e-05    -0.1617712697946449   -0.9058760847759307  
6.70000000e+09    -0.09648681231693555  -0.08013443940796749     -26.29922071309033     14.88091058236095   2.522810398597573e-05  7.120853668844157e-05    -0.1676567042737501   -0.8998385490523739  
6.80000000e+09     -0.1191851514512844  -0.07176683182151021     -22.16435431397865     19.34101619652563   3.881559888175974e-05  6.727231506581507e-05    -0.1736099215174067   -0.8957317415190339  
6.90000000e+09     -0.1364646936635791  -0.05994465010911614       -17.545495279337     22.64777649927309   5.12212300570119e-05  6.109874761105189e-05    -0.1800296302978076    -0.893125197367164  
7.00000000e+09     -0.1482584622809444  -0.04558442037449924     -12.68740364108387     24.91364086560653   6.237266142498688e-05  5.307502484507792e-05     -0.187116203260961   -0.8916161792307981  
7.10000000e+09      -0.154425589104448  -0.02942636629850033     -7.747811151983188     26.25415996031753   7.226035309305983e-05  4.340494366868679e-05    -0.1949636756384209   -0.8908624060594188  
7.20000000e+09     -0.1546378167657424   -0.0122605655528932     -2.795172757405186     26.76116294035704   8.082674305507419e-05  3.210816965772028e-05    -0.2035958028156305   -0.8905933541793002  
7.30000000e+09     -0.1486514123377337  0.005007822187605156      2.120464897189648     26.46382971173919   8.791362771057037e-05  1.912743795070225e-05    -0.2130250576487466   -0.8905790226156106  
7.40000000e+09      -0.136264998737511   0.02140751602013287      6.959803974454592     25.34683189907141   9.320541543582204e-05  4.31582578166489e-06    -0.2232546376023758   -0.8906175228967494  
7.50000000e+09     -0.1171047824264027   0.03563387343669084      11.63869448141972       23.331799767891   9.602329008462807e-05  -1.237560048093636e-05    -0.2342953926691191   -0.8904878472497381  
7.60000000e+09    -0.09112300207663805   0.04604019915794061      15.98963260443908     20.32005552862095   9.548199650629446e-05  -3.077258165284072e-05    -0.2461264812833686   -0.8899308241795105  
7.70000000e+09    -0.05889285249046705   0.05046893989083778      19.71618974606444     16.23758228447607   9.046785382496338e-05  -5.020690088355708e-05    -0.2586609921572408   -0.8886283338402349  
7.80000000e+09    -0.02173662793062536   0.04658252000835582      22.40145973689069     11.14179641016757   7.993673818703754e-05  -6.920847224810525e-05    -0.2716647686376465   -0.8862371065087786  
7.90000000e+09     0.01766135602480979   0.03231852252273974      23.57470236733109     5.347117718513002   6.348986130892569e-05  -8.545821067472564e-05    -0.2846955901681978   -0.8824870610606775  
8.00000000e+09     0.05515170854209295  0.007038174565386441      22.91436423395899   -0.5270249354657185   4.222635391922404e-05  -9.627286465347881e-05    -0.2971446632830932   -0.8773433138895868  
8.10000000e+09     0.08683921552219021  -0.02765529350696553       20.4798574110922    -5.686066795024295   1.876216621061378e-05  -9.970073448336051e-05    -0.3084181221983361   -0.8711256897093879  
8.20000000e+09      0.1100792729611842  -0.06828344062246736      16.78983657913868    -9.467324204333428   -3.456373257707974e-06  -9.56057442110988e-05    -0.3181927667236363   -0.8644528038584214  
8.30000000e+09      0.1245863335021742   -0.1109326488519739      12.59913029789481    -11.61594648909849   -2.160107056968268e-05  -8.56998676233116e-05    -0.3265405625537494   -0.8579702861166334  
8.40000000e+09      0.1319703844173019   -0.1527509835787919      8.594554678918698    -12.30311307217004   -3.441614119028307e-05  -7.263246597876543e-05    -0.3338254162224425   -0.8521209557990299  
8.50000000e+09      0.1344104281509575   -0.1924807401823764      5.188883403340165    -11.93172603917268   -4.209334204001097e-05  -5.879353947634124e-05    -0.3404855724242739   -0.8470598866323559  
8.60000000e+09      0.1335918342214513   -0.2300295483720312      2.524434181068924    -10.92703699303002   -4.563720726069534e-05  -4.578332445220143e-05    -0.3468756594258164   -0.8427367561729268  
8.70000000e+09      0.1305679340296497   -0.2659236607886672     0.5673979600926075    -9.625529387437203   -4.622662385933698e-05  -3.438331573871744e-05    -0.3532243786679641   -0.8390032623354181  
8.80000000e+09      0.1257323129358847   -0.3007860652269889    -0.7935746003679891     -8.24691903381115   -4.487516621173514e-05  -2.484039958974133e-05     -0.359647023907124   -0.8356965491022507  
8.90000000e+09       0.119172782516004   -0.3349640546027978     -1.688281427316042    -6.924141846850845   -4.237979553982813e-05  -1.708541104681846e-05    -0.3661889132410377   -0.8326767773611692  
9.00000000e+09      0.1107600235117818   -0.3686284602258877     -2.234634289151409    -5.721126349701109   -3.927351905936804e-05  -1.090857899182713e-05    -0.3728498901059999   -0.8298362618668349  
9.10000000e+09      0.1003320071763807   -0.4017641293504395     -2.528796953245025    -4.663355571172471   -3.591096272402059e-05  -6.066644880913619e-06    -0.3796109764698093   -0.8270975635529504  
9.20000000e+09     0.08776639524310513   -0.4342287620857714     -2.645281870949585    -3.754651506132829   -3.252750605344312e-05  -2.325609725002444e-06    -0.3864465042412428   -0.8244063026111619  
9.30000000e+09     0.07300991411106114   -0.4657793042081769     -2.640204172042987    -2.986398533677653   -2.925334797680585e-05  5.162583764123805e-07    -0.3933291607080485   -0.8217268136177281  
9.40000000e+09     0.05608522887186204   -0.4961665903412096     -2.554731462083101    -2.345250588011447   -2.616730023018082e-05  2.642257979428893e-06    -0.4002337103100072   -0.8190365115894607  
9.50000000e+09     0.03711323801225383   -0.5251162717515492      -2.41881220014296    -1.815624594083368   -2.331261202425522e-05  4.199480035305067e-06    -0.4071381476818025   -0.8163207951789091  
9.60000000e+09     0.01630216047374106   -0.5523708754324744     -2.253876266502529    -1.381827287787537   -2.071209274080896e-05  5.305857008653907e-06    -0.4140238280728457   -0.8135706577979445  
9.70000000e+09    -0.006135883116008634   -0.5777639986181258     -2.074629492902723    -1.029578731064792   -1.835266805189436e-05  6.061291797860852e-06    -0.4208751686737895   -0.8107821269038712  
9.80000000e+09    -0.02993521515628766    -0.601129489193113     -1.891699615604388   -0.7457394787689585   -1.623925742101331e-05  6.540701673583412e-06    -0.4276797328778817   -0.8079532977668306  
9.90000000e+09    -0.05484015419481302   -0.6223813558948674     -1.712093826946985   -0.5188175544925812   -1.435548758160869e-05  6.80711337907328e-06    -0.4344272117956736   -0.8050840371492893  
1.00000000e+10    -0.08059697271822867   -0.6414815169736404     -1.540334859373734   -0.3389041929062591   -1.268025628255472e-05  6.91035622989695e-06    -0.4411092727473305   -0.8021754509070494  
! NOISE PARAMETERS  :
4.00000000e+09      5.074367727285769    0.8708432186991821    -133.4762370613104      1.310770973579419 
4.10000000e+09      4.613342686299841    0.8609543392286325    -131.0620974760446      1.144064077822507 
4.20000000e+09      4.183935659012088    0.8497611898010294    -128.4917626278065     0.9984818751629719 
4.30000000e+09      3.787306084805204    0.8370526901830379    -125.7537042698125     0.8716757854891392 
4.40000000e+09      3.423431506225443    0.8225490987554078    -122.8342603805471     0.7611855866296426 
4.50000000e+09      3.092013950403899    0.8060141986987768    -119.7170683799499     0.6652962259146111 
4.60000000e+09      2.792288071669042    0.7870752947001323    -116.3876072330722     0.5819925166283594 
4.70000000e+09      2.522999720825384    0.7654174041528553    -112.8345221840621     0.5097497171201781 
4.80000000e+09      2.282694041729393    0.7406544779979348    -109.0439432183442     0.4471403479543303 
4.90000000e+09      2.069780977162335     0.712433212532838    -105.0077043762352     0.3929575394204513 
5.00000000e+09      1.882422135762345    0.6803567567990348    -100.7146814071559     0.3460751500943082 
5.10000000e+09      1.718410441546889    0.6442017254893446    -96.16622884851925     0.3055261454257454 
5.20000000e+09      1.576182989372207    0.6037137879874604    -91.37124927772292     0.2704315261374307 
5.30000000e+09        1.4535536704751    0.5588907027861892    -86.33156743084525      0.240070597741142 
5.40000000e+09      1.348492317306943    0.5100093928547706    -81.07631494184862     0.2137736415341399 
5.50000000e+09      1.259351658330337    0.4574362410997793    -75.62451996455518     0.1909657356449341 
5.60000000e+09      1.184677833198802    0.4019065962972116    -70.01567203945652     0.1711715561877115 
5.70000000e+09      1.122692138192911    0.3443566999318485    -64.26863549070843     0.1539581029370246 
5.80000000e+09      1.072221806795937    0.2860011203888443    -58.42757663014776     0.1389869257965854 
5.90000000e+09      1.031943378168117    0.2279967823791329    -52.48102376674856     0.1259476732177575 
6.00000000e+09      1.000959988955888    0.1715663026111338    -46.38666978714763     0.1146064711015803 
6.10000000e+09      0.978221229277158    0.1178273499429092     -39.9400151803051      0.104756806542581 
6.20000000e+09     0.9631773242078545   0.06776430680438017    -32.33730585596032    0.09625736367297293 
6.30000000e+09     0.9548533926051193   0.02250854951915996    -16.38946112854367    0.08897646000670048 
6.40000000e+09      0.952785033599726   0.02035233020843965     135.2843360711887     0.0828183681071803 
6.50000000e+09     0.9564403364758631   0.05566740731888773     151.5574352057015    0.07772714413789861 
6.60000000e+09     0.9653805911164216   0.08621673429704581     158.7217387270652    0.07366103644927549 
6.70000000e+09     0.9791762306761894    0.1115420521161576     164.4755509539046    0.07060028387400327 
6.80000000e+09     0.9975353986845559    0.1317205800553691     169.7184283842852    0.06853406711196686 
6.90000000e+09      1.020104760724176    0.1468346286640213     174.7170731183258    0.06747206991485433 
7.00000000e+09      1.046714886420029    0.1570693016584085     179.6060689671825    0.06743163232247569 
7.10000000e+09      1.077105927786519     0.162613178554007    -175.5448970629463    0.06843396328655639 
7.20000000e+09      1.111100895313632    0.1636566423509199    -170.6396671891277    0.07050974074317048 
7.30000000e+09      1.148702012924173    0.1603535526331146     -165.603065967971    0.07370651550735985 
7.40000000e+09      1.189770618727404    0.1529623130567224    -160.3299061007796    0.07805267700264384 
7.50000000e+09      1.234431525285243    0.1416561994352141    -154.6596250959993    0.08360712081071522 
7.60000000e+09      1.282714469418633    0.1267145903739841    -148.3106342520609    0.09042259907391048 
7.70000000e+09      1.334961406932449    0.1085000939570109    -140.8175748301457    0.09856154049484811 
7.80000000e+09      1.391375484612378   0.08760897572576141    -131.0721079846637     0.1081065849230916 
7.90000000e+09      1.452527768241076   0.06534194650024644    -116.3920973711057     0.1191566394420201 
8.00000000e+09      1.518962516406994   0.04567344764060773    -89.41862045634798     0.1318163627712244 
8.10000000e+09      1.591539336904966   0.04060721663432009    -42.26103963515633     0.1462669853012699 
8.20000000e+09      1.671021927785333   0.05871625594684182     -3.37842458083226     0.1626646774304698 
8.30000000e+09      1.758678809763989   0.08892105918875014     16.77594721536242     0.1812662652281914 
8.40000000e+09      1.855782014677468    0.1239408505957647     28.74727656743271     0.2023782183147968 
8.50000000e+09      1.963683333477914    0.1613077768953223     37.27879614461928     0.2263687629546521 
8.60000000e+09      2.083980934852281    0.1998934021553488      44.1054481609974     0.2537130405418501 
8.70000000e+09      2.218473451521949    0.2389904767409886     49.95624607523889     0.2850119676424052 
8.80000000e+09      2.369171392099829    0.2780523949136402     55.18495949125134     0.3210036565982007 
8.90000000e+09      2.537700964240283    0.3166028773771059     59.95157334474616     0.3625551139745372 
9.00000000e+09      2.726041413225832    0.3542685992524656     64.35994654595696     0.4107537816600715 
9.10000000e+09      2.936046287258722    0.3907562485839782     68.47029432978809     0.4669155733877761 
9.20000000e+09      3.169169167536885    0.4258580287788271     72.31836129135553     0.5326079181889609 
9.30000000e+09       3.42693557754214    0.4593971475721955     75.93384099482822     0.6096946180231226 
9.40000000e+09      3.710201572837521    0.4912987254780826      79.3356952845641     0.7003955549192808 
9.50000000e+09      4.019515758546632    0.5215145564042378     82.54034273368963     0.8073158037135829 
9.60000000e+09      4.355075393294636    0.5500215352369341     85.56158060573898     0.9335114677634618 
9.70000000e+09      4.716510963026313    0.5768749044726461     88.41439269536775      1.082618777623926 
9.80000000e+09       5.10307324354277    0.6020981896336675     91.11053388487103      1.258787234345589 
9.90000000e+09      5.513550375703822    0.6257552176204996     93.66304705411729      1.466838766166306 
1.00000000e+10      5.946351977934865    0.6479198980682043     96.08412988778989      1.712324566093785 

