/M0/D (M=1) X,/M0/D (M=1) Y,/M0/D (M=10) X,/M0/D (M=10) Y,/M0/D (M=20) X,/M0/D (M=20) Y
0,1.005158178912779e-10,0,9.805352319030058e-10,0,1.95388725038494e-09
0.01,1.329726218945738e-10,0.01,1.29919527084908e-09,0.01,2.591471833290122e-09
0.02,1.755677996301684e-10,0.02,1.723838696297293e-09,0.02,3.440222571004319e-09
0.03,2.321883685858334e-10,0.03,2.288843258550617e-09,0.03,4.569834094690065e-09
0.04,3.074361504282821e-10,0.04,3.040438109954808e-09,0.04,6.072913536397158e-09
0.05,4.07416013539795e-10,0.05,4.04000861587906e-09,0.05,8.072462633152914e-09
0.06,5.40222430907539e-10,0.06,5.369018776307177e-09,0.06,1.07317586350098e-08
0.07000000000000001,7.165631117045564e-10,0.07000000000000001,7.135327023076829e-09,0.07000000000000001,1.42670365703908e-08
0.08,9.506150513144287e-10,0.08,9.481877377492496e-09,0.08,1.896495272151386e-08
0.09,1.261138745206096e-09,0.09,1.259798903949357e-08,0.09,2.52052572825138e-08
0.09999999999999999,1.672929570229757e-09,0.09999999999999999,1.673409839062514e-08,0.09999999999999999,3.349042084620755e-08
0.11,2.218725961425266e-09,0.11,2.222114806921158e-08,0.11,4.448460431276202e-08
0.12,2.941703742631805e-09,0.12,2.949594933267055e-08,0.12,5.906464447700194e-08
0.13,3.898727797943875e-09,0.13,3.913426590310471e-08,0.13,7.838657397508592e-08
0.14,5.16457774511277e-09,0.14,5.189383205553454e-08,0.14,1.039721293604315e-07
0.15,6.837419548238552e-09,0.15,6.877008193271708e-08,0.15,1.378208364524881e-07
0.16,9.045861048914989e-09,0.16,9.10680402857931e-08,0.16,1.825546162110895e-07
0.17,1.195800662836618e-08,0.17,1.204946105738786e-07,0.17,2.416034338120593e-07
0.18,1.579301412499274e-08,0.18,1.592763881199489e-07,0.18,3.194423044917746e-07
0.19,2.083575374876725e-08,0.19,2.103091018835898e-07,0.19,4.218919268372846e-07
0.2,2.745527000912828e-08,0.2,2.773458046818087e-07,0.2,5.564972481220869e-07
0.21,3.612784686212493e-08,0.21,3.652319166233483e-07,0.21,7.330002308678053e-07
0.2200000000000001,4.746556347692344e-08,0.2200000000000001,4.801960758776017e-07,0.2200000000000001,9.639247733969509e-07
0.2300000000000001,6.225129011086209e-08,0.2300000000000001,6.302063282625715e-07,0.2300000000000001,1.265292863695618e-06
0.2400000000000001,8.148109502575036e-08,0.2400000000000001,8.254013330228608e-07,0.2400000000000001,1.657491294090274e-06
0.2500000000000001,1.064149982071733e-07,0.2500000000000001,1.078605816179826e-06,0.2500000000000001,2.166307313063003e-06
0.2600000000000001,1.386369029890952e-07,0.2600000000000001,1.405938341546946e-06,0.2600000000000001,2.824149196734018e-06
0.2700000000000001,1.801243576486105e-07,0.2700000000000001,1.827517557690903e-06,0.2700000000000001,3.671463824414856e-06
0.2800000000000001,2.333285539353823e-07,0.2800000000000001,2.368270522265069e-06,0.2800000000000001,4.758358165011275e-06
0.2900000000000001,3.012646830740843e-07,0.2900000000000001,3.058843777504232e-06,0.2900000000000001,6.146425688607653e-06
0.3000000000000001,3.876124807573401e-07,0.3000000000000001,3.936614960280896e-06,0.3000000000000001,7.910772937872483e-06
0.3100000000000001,4.968265416734062e-07,0.3100000000000001,5.046800280515463e-06,0.3100000000000001,1.014223663001794e-05
0.3200000000000001,6.342557899652968e-07,0.3200000000000001,6.443651334888115e-06,0.3200000000000001,1.294977796478727e-05
0.3300000000000001,8.062713197063867e-07,0.3300000000000001,8.191732990452346e-06,0.3300000000000001,1.646303732796321e-05
0.3400000000000001,1.020401552536608e-06,0.3400000000000001,1.036727117553976e-05,0.3400000000000001,2.083502662198487e-05
0.3500000000000001,1.285473097172837e-06,0.3500000000000001,1.305955322763951e-05,0.3500000000000001,2.624492370747131e-05
0.3600000000000002,1.611754595300853e-06,0.3600000000000002,1.637235153273058e-05,0.3600000000000002,3.290090903000619e-05
0.3700000000000002,2.011099012105981e-06,0.3700000000000002,2.042532183430618e-05,0.3700000000000002,4.104294512631965e-05
0.3800000000000002,2.49707726786226e-06,0.3800000000000002,2.535530106786635e-05,0.3800000000000002,5.094534614138164e-05
0.3900000000000002,3.08509307779933e-06,0.3900000000000002,3.131739905119596e-05,0.3900000000000002,6.291892336620881e-05
0.4000000000000002,3.792465925949524e-06,0.4000000000000002,3.848574978670888e-05,0.4000000000000002,7.731243627108999e-05
0.4100000000000002,4.638466972789443e-06,0.4100000000000002,4.705376891749172e-05,0.4100000000000002,9.451304143554321e-05
0.4200000000000002,5.644292081382174e-06,0.4200000000000002,5.723376073731366e-05,0.4200000000000002,0.0001149454274287135
0.4300000000000002,6.832957496195685e-06,0.4300000000000002,6.925573510566105e-05,0.4300000000000002,0.0001390693597839674
0.4400000000000002,8.229107119239806e-06,0.4400000000000002,8.336533203632754e-05,0.4400000000000002,0.0001673754371295399
0.4500000000000002,9.858725555088186e-06,0.4500000000000002,9.982080670659167e-05,0.4500000000000002,0.0002003789711933496
0.4600000000000002,1.174875766332363e-05,0.4600000000000002,0.0001188890951439413,0.4600000000000002,0.000238612039563336
0.4700000000000003,1.392664267315187e-05,0.4700000000000003,0.0001408410548261591,0.4700000000000003,0.0002826139085101567
0.4800000000000003,1.641977833704347e-05,0.4800000000000003,0.0001659460482731795,0.4800000000000003,0.0003329201705177994
0.4900000000000003,1.925493743877171e-05,0.4900000000000003,0.0001944661042853782,0.4900000000000003,0.0003900510729950679
0.5000000000000002,2.245769878712801e-05,0.5000000000000002,0.0002266499431205439,0.5000000000000002,0.0004544996154996976
0.5100000000000002,2.605173264741481e-05,0.5100000000000002,0.0002627271813719078,0.5100000000000002,0.0005267200483032443
0.5200000000000002,3.005841947220854e-05,0.5200000000000002,0.0003029030339213614,0.5200000000000002,0.0006071174042024527
0.5300000000000002,3.449627266193262e-05,0.5300000000000002,0.0003473538016195504,0.5300000000000002,0.0006960386337706527
0.5400000000000003,3.938058525589127e-05,0.5400000000000003,0.0003962233764721291,0.5400000000000003,0.0007937657968235872
0.5500000000000003,4.472316838149371e-05,0.5500000000000003,0.0004496209175971716,0.5500000000000003,0.0009005116034263287
0.5600000000000003,5.053221355565697e-05,0.5600000000000003,0.0005076197610670581,0.5600000000000003,0.00101641741672993
0.5700000000000003,5.681227815457076e-05,0.5700000000000003,0.000570257536401316,0.5700000000000003,0.001141553650268071
0.5800000000000003,6.356438502936198e-05,0.5800000000000003,0.0006375373825871269,0.5800000000000003,0.001275922335108872
0.5900000000000003,7.078622058410923e-05,0.5900000000000003,0.0007094300950825713,0.5900000000000003,0.001419461512948269
0.6000000000000003,7.847241117601072e-05,0.6000000000000003,0.0007858769966252019,0.6000000000000003,0.001572051037861945
0.6100000000000003,8.661485558979641e-05,0.6100000000000003,0.0008667933093392878,0.6100000000000003,0.001733519342437502
0.6200000000000003,9.52030913890947e-05,0.6200000000000003,0.00095207181097108,0.6200000000000003,0.001903650737665773
0.6300000000000003,0.0001042246747309498,0.6300000000000003,0.001041586579388241,0.6300000000000003,0.002082192860645264
0.6400000000000003,0.0001136655562041562,0.6400000000000003,0.00113519695766282,0.6400000000000003,0.002268863948686509
0.6500000000000004,0.0001235104388666155,0.6500000000000004,0.001232749876029026,0.6500000000000004,0.002463359692106075
0.6600000000000004,0.0001337431084303095,0.6600000000000004,0.001334084677927402,0.6600000000000004,0.002665359491983942
0.6700000000000004,0.0001443467291065922,0.6700000000000004,0.001439034878524193,0.6700000000000004,0.002874532016981032
0.6800000000000004,0.0001553041017376067,0.6800000000000004,0.001547430868717811,0.6800000000000004,0.003090540011031323
0.6900000000000004,0.000166597883375875,0.6900000000000004,0.001659101983762024,0.6900000000000004,0.003313044349574904
0.7000000000000004,0.0001782107694012568,0.7000000000000004,0.001773878208131843,0.7000000000000004,0.003541707375893832
0.7100000000000004,0.0001901256406162069,0.7100000000000004,0.001891591543266444,0.7100000000000004,0.003776195572075211
0.7200000000000004,0.0002023256786104399,0.7200000000000004,0.002012077072066228,0.7200000000000004,0.004016181632808479
0.7300000000000004,0.0002147944531270888,0.7300000000000004,0.002135173757460056,0.7300000000000004,0.004261346016512325
0.7400000000000004,0.0002275159852897017,0.7400000000000004,0.002260725012941151,0.7400000000000004,0.004511378528655986
0.7500000000000004,0.0002404747904512088,0.7500000000000004,0.002388579081541612,0.7500000000000004,0.004765977163780664
0.7600000000000005,0.0002536559041780297,0.7600000000000005,0.002518589256986325,0.7600000000000005,0.005024851306133075
0.7700000000000005,0.0002670448945457933,0.7700000000000005,0.002650613977302652,0.7700000000000005,0.005287720078709006
0.7800000000000005,0.0002806278635443395,0.7800000000000005,0.002784516817384799,0.7800000000000005,0.005554312763958881
0.7900000000000005,0.00029439144000231,0.7900000000000005,0.002920166403222715,0.7900000000000005,0.005824368624584433
0.8000000000000005,0.0003083227660686258,0.8000000000000005,0.00305743626690275,0.8000000000000005,0.006097636609159081
0.8100000000000005,0.000322409478943582,0.8100000000000005,0.003196204658194326,0.8100000000000005,0.0063738749734884
0.8200000000000005,0.0003366396892440074,0.8200000000000005,0.003336354325612816,0.8200000000000005,0.006652850842890679
0.8300000000000005,0.0003510019571180931,0.8300000000000005,0.003477772277317052,0.8300000000000005,0.006934339735613299
0.8400000000000005,0.0003654852669958579,0.8400000000000005,0.003620349530052722,0.8400000000000005,0.00721812506339709
0.8500000000000005,0.0003800790016690234,0.8500000000000005,0.003763980852566668,0.8500000000000005,0.00750399762171147
0.8600000000000005,0.0003947729162358684,0.8600000000000005,0.003908564508459104,0.8600000000000005,0.007791755079340656
0.8700000000000006,0.0004095571123188414,0.8700000000000006,0.004054002002273766,0.8700000000000006,0.008081201474729851
0.8800000000000006,0.0004244220128613992,0.8800000000000006,0.004200197831713113,0.8800000000000006,0.008372146724730677
0.8900000000000006,0.0004393583377320859,0.8900000000000006,0.004347059248170615,0.8900000000000006,0.008664406150042348
0.9000000000000006,0.0004543570803046152,0.9000000000000006,0.004494496027263811,0.9000000000000006,0.008957800020670136
0.9100000000000006,0.0004694094851399625,0.9100000000000006,0.004642420250699736,0.9100000000000006,0.009252153124055047
0.9200000000000006,0.0004845070268670757,0.9200000000000006,0.004790746100584793,0.9200000000000006,0.009547294358121863
0.9300000000000006,0.0004996413903408615,0.9300000000000006,0.00493938966718021,0.9300000000000006,0.00984305635130015
0.9400000000000006,0.0005148044521472179,0.9400000000000006,0.005088268771083319,0.9400000000000006,0.0101392751115567
0.9500000000000006,0.0005299882635234628,0.9500000000000006,0.005237302800864096,0.9500000000000006,0.01043578970660005
0.9600000000000006,0.0005451850347669315,0.9600000000000006,0.005386412567289063,0.9600000000000006,0.0107324419776423
0.9700000000000006,0.0005603871212130117,0.9700000000000006,0.0055355201754009,0.9700000000000006,0.01102907628939226
0.9800000000000006,0.0005755870108752923,0.9800000000000006,0.005684548915873161,0.9800000000000006,0.011325539319265
0.9900000000000007,0.000590777313852742,0.9900000000000007,0.005833423177200978,0.9900000000000007,0.01162167988907875
1,0.0006059507536205684,1,0.005982068380397486,1,0.01191734884271844
