/M0/D (M=1) X,/M0/D (M=1) Y,/M0/D (M=10) X,/M0/D (M=10) Y,/M0/D (M=20) X,/M0/D (M=20) Y
0,2.362939056045892e-08,0,1.276346432368635e-07,0,2.145074329741372e-07
0.01,3.021121514835095e-08,0.01,1.63830676062804e-07,0.01,2.756313248986228e-07
0.02,3.860322477449779e-08,0.02,2.101977821071122e-07,0.02,3.540289569622513e-07
0.03,4.929227303437808e-08,0.03,2.695468464476895e-07,0.03,4.545076219971978e-07
0.04,6.28912705366436e-08,0.04,3.454440974496171e-07,0.04,5.831784681799769e-07
0.05,8.016969201258649e-08,0.05,4.424044061632323e-07,0.05,7.477946824072299e-07
0.06,1.020897256816668e-07,0.06,5.661282991645328e-07,0.06,9.581689801589511e-07
0.07000000000000001,1.298484687086965e-07,0.07000000000000001,7.23777048277139e-07,0.07000000000000001,1.226660271936579e-06
0.08,1.649339719119388e-07,0.08,9.243438169458844e-07,0.08,1.568826953871075e-06
0.09,2.09185749482844e-07,0.09,1.179078703044444e-06,0.09,2.004190561873777e-06
0.09999999999999999,2.648662533021245e-07,0.09999999999999999,1.501994497969953e-06,0.09999999999999999,2.557143594163859e-06
0.11,3.347427053894355e-07,0.11,1.910467458454614e-06,0.11,3.258037569442979e-06
0.12,4.221789476901939e-07,0.12,2.425937527701076e-06,0.12,4.144462200153775e-06
0.13,5.312363954524244e-07,0.13,3.074712307336802e-06,0.13,5.262728685910867e-06
0.14,6.667822662655617e-07,0.14,3.888874165675385e-06,0.14,6.669562447003272e-06
0.15,8.346021762373271e-07,0.15,4.907282991246338e-06,0.15,8.433999246905247e-06
0.16,1.041513023700973e-06,0.16,6.176658222962804e-06,0.16,1.063946326246893e-05
0.17,1.295470949488311e-06,0.17,7.752713187410981e-06,0.17,1.338598640623004e-05
0.18,1.60566825632325e-06,0.18,9.701303176560228e-06,0.18,1.679250599642445e-05
0.19,1.982612714325345e-06,0.19,1.209953737995691e-05,0.19,2.099915461605997e-05
0.2,2.438182908273752e-06,0.2,1.503679557600746e-05,0.2,2.616943474607156e-05
0.21,2.985654381974592e-06,0.21,1.861558563625974e-05,0.21,3.249215557815347e-05
0.2200000000000001,3.639693378930685e-06,0.2200000000000001,2.29521797286123e-05,0.2200000000000001,4.018300496987028e-05
0.2300000000000001,4.416317861477225e-06,0.2300000000000001,2.817697746894825e-05,0.2300000000000001,4.948564015612108e-05
0.2400000000000001,5.332828890967904e-06,0.2400000000000001,3.443456385333699e-05,0.2400000000000001,6.06722093754746e-05
0.2500000000000001,6.407718843241508e-06,0.2500000000000001,4.188345747813405e-05,0.2500000000000001,7.404326284741691e-05
0.2600000000000001,7.660565662629079e-06,0.2600000000000001,5.069557700885164e-05,0.2600000000000001,8.992707131296285e-05
0.2700000000000001,9.111923778892404e-06,0.2700000000000001,6.105548574562825e-05,0.2700000000000001,0.0001086784350114369
0.2800000000000001,1.078322195263833e-05,0.2800000000000001,7.315949890723892e-05,0.2800000000000001,0.0001306771234519315
0.2900000000000001,1.26966760211445e-05,0.2900000000000001,8.721474959543949e-05,0.2900000000000001,0.0001563261234300549
0.3000000000000001,1.487522052397149e-05,0.3000000000000001,0.0001034383028969462,0.3000000000000001,0.000186049878284338
0.3100000000000001,1.734245809524729e-05,0.3100000000000001,0.0001220563821611676,0.3100000000000001,0.0002202926695686539
0.3200000000000001,2.012262015612731e-05,0.3200000000000001,0.000143303730087504,0.3200000000000001,0.000259517224900915
0.3300000000000001,2.324056874936595e-05,0.3300000000000001,0.0001674230764055245,0.3300000000000001,0.0003042035424097332
0.3400000000000001,2.672159603365593e-05,0.3400000000000001,0.0001946646324310246,0.3400000000000001,0.000354847818736335
0.3500000000000001,3.059154136561897e-05,0.3500000000000001,0.0002252854897969021,0.3500000000000001,0.0004119612724961883
0.3600000000000002,3.487653914898798e-05,0.3600000000000002,0.0002595487738853319,0.3600000000000002,0.0004760685858385457
0.3700000000000002,3.960286096703235e-05,0.3700000000000002,0.000297722396846668,0.3700000000000002,0.0005477056561893495
0.3800000000000002,4.479666411974921e-05,0.3800000000000002,0.0003400772721808162,0.3800000000000002,0.0006274163649800215
0.3900000000000002,5.048367339703628e-05,0.3900000000000002,0.0003868848911051638,0.3900000000000002,0.0007157481299367558
0.4000000000000002,5.668880087918181e-05,0.4000000000000002,0.0004384142161792619,0.4000000000000002,0.0008132461061200742
0.4100000000000002,6.343571508929441e-05,0.4100000000000002,0.0004949279138986607,0.4100000000000002,0.0009204460275448998
0.4200000000000002,7.07463767213633e-05,0.4200000000000002,0.0005566780181010411,0.4200000000000002,0.001037865822007247
0.4300000000000002,7.864056282604784e-05,0.4300000000000002,0.0006239011825094315,0.4300000000000002,0.001165996271271038
0.4400000000000002,8.713540424529773e-05,0.4400000000000002,0.0006968137362733871,0.4400000000000002,0.001305291111514034
0.4500000000000002,9.624496189719431e-05,0.4500000000000002,0.0007756067946186078,0.4500000000000002,0.001456157060810643
0.4600000000000002,0.00010597986608974,0.4600000000000002,0.0008604416930370199,0.4600000000000002,0.001618944310374606
0.4700000000000003,0.0001163470395016338,0.4700000000000003,0.0009514460055726195,0.4700000000000003,0.001793938017743103
0.4800000000000003,0.0001273495191718533,0.4800000000000003,0.001048710376217768,0.4800000000000003,0.00198135129211658
0.4900000000000003,0.0001389863863547147,0.4900000000000003,0.001152286865778989,0.4900000000000003,0.002181320069717972
0.5000000000000002,0.0001512528061141791,0.5000000000000002,0.001262185873950301,0.5000000000000002,0.002393900150743731
0.5100000000000002,0.0001641401717653561,0.5100000000000002,0.00137837906280213,0.5100000000000002,0.002619066523573819
0.5200000000000002,0.0001776363433595349,0.5200000000000002,0.001500798699360889,0.5200000000000002,0.002856714952412229
0.5300000000000002,0.0001917259648304436,0.5300000000000002,0.001629340260769769,0.5300000000000002,0.003106665666767868
0.5400000000000003,0.0002063908414463115,0.5400000000000003,0.001763865455904855,0.5400000000000003,0.003368668877652458
0.5500000000000003,0.0002216103579031996,0.5500000000000003,0.00190420591400652,0.5500000000000003,0.0036424117643037
0.5600000000000003,0.000237361917620284,0.5600000000000003,0.002050167337787775,0.5600000000000003,0.003927526530043439
0.5700000000000003,0.0002536213852891911,0.5700000000000003,0.002201533918271833,0.5700000000000003,0.004223599115433906
0.5800000000000003,0.0002703635171408173,0.5800000000000003,0.00235807282223039,0.5800000000000003,0.004530179117903805
0.5900000000000003,0.0002875623663577225,0.5900000000000003,0.002519538586949877,0.5900000000000003,0.004846785000730037
0.6000000000000003,0.000305191654238234,0.6000000000000003,0.002685677287236887,0.6000000000000003,0.005172918014693267
0.6100000000000003,0.0003232251008281612,0.6100000000000003,0.002856230372423256,0.6100000000000003,0.005508066592684492
0.6200000000000003,0.0003416367115694326,0.6200000000000003,0.003030938103585588,0.6200000000000003,0.005851714362033119
0.6300000000000003,0.0003604010189399389,0.6300000000000003,0.003209542550974504,0.6300000000000003,0.006203346436153567
0.6400000000000003,0.0003794932800111285,0.6400000000000003,0.003391790137288317,0.6400000000000003,0.006562454801715521
0.6500000000000004,0.0003988896323202598,0.6500000000000004,0.003577433733191036,0.6500000000000004,0.006928542802287585
0.6600000000000004,0.0004185672114730399,0.6600000000000004,0.00376623432722532,0.6600000000000004,0.007301128754117702
0.6700000000000004,0.0004385042345149499,0.6700000000000004,0.003957962303297135,0.6700000000000004,0.007679748754606709
0.6800000000000004,0.0004586800534038544,0.6800000000000004,0.00415239836577369,0.6800000000000004,0.008063958760173054
0.6900000000000004,0.0004790751829533482,0.6900000000000004,0.004349334155641893,0.6900000000000004,0.008453336018959199
0.7000000000000004,0.000499671307462889,0.7000000000000004,0.004548572601857506,0.7000000000000004,0.008847479946684073
0.7100000000000004,0.0005204512699665026,0.7100000000000004,0.004749928050679093,0.7100000000000004,0.009246012532338987
0.7200000000000004,0.0005413990476666772,0.7200000000000004,0.004953226213046576,0.7200000000000004,0.009648578355673705
0.7300000000000004,0.0005624997167134102,0.7300000000000004,0.005158303966455034,0.7300000000000004,0.01005484429162362
0.7400000000000004,0.0005837394090704168,0.7400000000000004,0.005365009043705235,0.7400000000000004,0.01046449896889495
0.7500000000000004,0.0006051052638029023,0.7500000000000004,0.005573199636701506,0.7500000000000004,0.01087725204153641
0.7600000000000005,0.0006265853747383489,0.7600000000000005,0.005782743939339768,0.7600000000000005,0.01129283332399165
0.7700000000000005,0.0006481687361025542,0.7700000000000005,0.005993519649640591,0.7700000000000005,0.01171099183219272
0.7800000000000005,0.0006698451874219841,0.7800000000000005,0.006205413447725771,0.7800000000000005,0.01213149476594138
0.7900000000000005,0.0006916053587118198,0.7900000000000005,0.00641832046306268,0.7900000000000005,0.01255412646125438
0.8000000000000005,0.0007134406167359693,0.8000000000000005,0.006632143741624373,0.8000000000000005,0.01297868733556787
0.8100000000000005,0.0007353430129284139,0.8100000000000005,0.006846793721225961,0.8100000000000005,0.01340499284370397
0.8200000000000005,0.0007573052334014374,0.8200000000000005,0.007062187721279534,0.8200000000000005,0.01383287245825804
0.8300000000000005,0.000779320551331942,0.8300000000000005,0.007278249451525764,0.8300000000000005,0.01426216868451254
0.8400000000000005,0.0008013827819084201,0.8400000000000005,0.007494908542917588,0.8400000000000005,0.01469273611704964
0.8500000000000005,0.0008234862399347306,0.8500000000000005,0.007712100102709676,0.8500000000000005,0.01512444054284763
0.8600000000000005,0.0008456257001191489,0.8600000000000005,0.007929764294912947,0.8600000000000005,0.0155571580937304
0.8700000000000006,0.0008677963600252401,0.8700000000000006,0.008147845946569752,0.8700000000000006,0.01599077444952514
0.8800000000000006,0.0008899938056221535,0.8800000000000006,0.008366294179763268,0.8800000000000006,0.01642518409210991
0.8900000000000006,0.000912213979343636,0.8900000000000006,0.00858506206886527,0.8900000000000006,0.01686028960963746
0.9000000000000006,0.0009344531505453586,0.9000000000000006,0.008804106322226111,0.9000000000000006,0.0172960010495595
0.9100000000000006,0.0009567078882372318,0.9100000000000006,0.009023386987298888,0.9100000000000006,0.01773223531860057
0.9200000000000006,0.0009789750359599976,0.9200000000000006,0.009242867178047934,0.9200000000000006,0.01816891562750513
0.9300000000000006,0.001001251688671993,0.9300000000000006,0.009462512823406138,0.9300000000000006,0.01860597097817761
0.9400000000000006,0.001023535171512022,0.9400000000000006,0.009682292435503274,0.9400000000000006,0.01904333569072197
0.9500000000000006,0.001045823020306473,0.9500000000000006,0.00990217689637788,0.9500000000000006,0.01948094896784966
0.9600000000000006,0.001068112963692972,0.9600000000000006,0.01012213926190216,0.9600000000000006,0.0199187544941383
0.9700000000000006,0.001090402906738045,0.9700000000000006,0.01034215458168223,0.9700000000000006,0.02035670006768011
0.9800000000000006,0.001112690915932416,0.9800000000000006,0.01056219973374476,0.9800000000000006,0.02079473726174357
0.9900000000000007,0.00113497520545412,0.9900000000000007,0.01078225327287606,0.9900000000000007,0.02123282111417692
1,0.0011572541245964,1,0.0110022952915419,1,0.02167090984239841
