! Touchstone Ver. 1.0 
! Number of ports is 2
# Hz	S	RI	R	50.000000
! SCATTERING PARAMETERS  :
4.00000000e+09      0.9964190071349992   -0.0688874240067944   -0.03126409264844826   0.02867783150965834   0.001037402180188309   0.02194037014102399     0.9953114196756515  -0.05691043367695492  
4.20000000e+09      0.9960542322326137   -0.0723080829772447   -0.03109847673612201   0.03011064023274473   0.001146931999223582   0.02304243987408544     0.9949687967790756   -0.0597107304910129  
4.40000000e+09      0.9956721016504211  -0.07572534339112891   -0.03092438617520453    0.0315431596555411   0.001262397002291739   0.02414507313192631     0.9946112063284112  -0.06250483755449791  
4.60000000e+09      0.9952726735935509  -0.07913905924352936   -0.03074177404245633   0.03297534746188581     0.0013838691260052   0.02524825834656446     0.9942388679940547  -0.06529255412767668  
4.80000000e+09      0.9948560079494064   -0.0825490877166251   -0.03055059317519918   0.03440715817333789   0.001511421065165995   0.02635197961266424     0.9938520054164135  -0.06807369152659565  
5.00000000e+09      0.9944221664807875  -0.08595528561499878   -0.03035079649554674   0.03583854304898589    0.00164512591627807    0.0274562166976124     0.9934508458124059  -0.07084806956722903  
5.20000000e+09      0.9939712123470396  -0.08935751409912381   -0.03014233704176387    0.0372694502439841   0.001785057039781692   0.02856094504917975     0.9930356190486656  -0.07361552126986844  
5.40000000e+09      0.9935032104074525  -0.09275563401643144   -0.02992516833015618   0.03869982470446616   0.001931287680300019   0.02966613584326368     0.9926065573595885  -0.07637588813150266  
5.60000000e+09      0.9930182268189709  -0.09614950952820074   -0.02969924440747237   0.04012960831692156   0.002083890818958556   0.03077175602545462     0.9921638945085298  -0.07912902366002751  
5.80000000e+09      0.9925163290327562  -0.09953900703351064   -0.02946452006732521   0.04155873993115965   0.002242938907809977   0.03187776837947717     0.9917078652877428  -0.08187479217753532  
6.00000000e+09      0.9919975860024037   -0.1029239922914216   -0.02922095114962276    0.0429871553467629   0.002408503546597072   0.03298413161824898     0.9912387052140401  -0.08461306579371146  
6.20000000e+09      0.9914620674887258    -0.106304336537886   -0.02896849444272225   0.04441478755871602    0.00258065545791913   0.03409080045409902     0.9907566494973592  -0.08734373034802008  
6.40000000e+09       0.990909844557136   -0.1096799107147249   -0.02870710808902918   0.04584156668192976   0.002759464094043979   0.03519772572475054     0.9902619330151532  -0.09006667944083382  
6.60000000e+09      0.9903409892106875   -0.1130505883350334   -0.02843675160900938   0.04726742012359664   0.002944997531048058   0.03630485449786202     0.9897547895953609  -0.09278181707924638  
6.80000000e+09      0.9897555744750066   -0.1164162440269931    -0.0281573861093097   0.04869227264487565   0.003137322231534391   0.03741213020265104     0.9892354517002258  -0.09548905598203065  
7.00000000e+09      0.9891536741684758   -0.1197767549479363   -0.02786897434466089   0.05011604650521893   0.003336502920683155   0.03851949275675232     0.9887041498623932  -0.09818831873735456  
7.20000000e+09      0.9885353629149063    -0.123132000039638   -0.02757148087343708   0.05153866155538891   0.003542602398242763   0.03962687871072015     0.9881611123604266   -0.1008795367874017  
7.40000000e+09      0.9879007160828295   -0.1264818599998813   -0.02726487217043324   0.05296003535444847   0.003755681387332434   0.04073422139569813     0.9876065648455516   -0.1035626501151063  
7.60000000e+09       0.987249809728561   -0.1298262172516651   -0.02694911673034785   0.05438008329123243   0.003975798395606256   0.04184145107682634     0.9870407300102424   -0.1062376069189604  
7.80000000e+09      0.9865827205430864   -0.1331649559104373   -0.02662418516157042   0.05579871870868391    0.00420300958868731   0.04294849511075132     0.9864638272674422   -0.1089043632750117  
8.00000000e+09      0.9858995259014733   -0.1364979610362194   -0.02629005031332842    0.0572158530149465   0.004437368644278594   0.04405527811224196     0.9858760725581142   -0.1115628820776662  
8.20000000e+09      0.9852003036267976   -0.1398251200270619   -0.02594668726882561   0.05863139584627271   0.004678926710883694   0.04516172210826568     0.9852776779331343   -0.1142131341176991  
8.40000000e+09      0.9844851319363255   -0.1431463225790576    -0.0255940734062152   0.06004525519560211   0.004927732321376142   0.04626774670220286     0.9846688513177616    -0.116855097723101  
8.60000000e+09      0.9837540898148163   -0.1464614577999956    -0.0252321886329948   0.06145733748064515    0.00518383118239471   0.04737326926295005     0.9840497966478481   -0.1194887555456877  
8.80000000e+09      0.9830072562574392   -0.1497704191571093   -0.02486101512352858   0.06286754778467446   0.005447266338365314   0.04847820505138532     0.9834207131020898   -0.1221140991959185  
9.00000000e+09      0.9822447109651693   -0.1530730994554205   -0.02448053767206592   0.06427578987796494   0.005718077882069761   0.04958246742674477     0.9827817955458722   -0.1247311238905262  
9.20000000e+09      0.9814665339000942    -0.156369393647779   -0.02409074354543111   0.06568196640934323   0.005996303042159006   0.05068596798787185     0.9821332340636486    -0.127339830949494  
9.40000000e+09      0.9806728053637398   -0.1596591980854647    -0.0236916225518132   0.06708597901851503   0.006281976114143417   0.05178861674163648     0.9814752139417866   -0.1299402267306277  
9.60000000e+09      0.9798636060923542   -0.1629424097738928   -0.02328316710813371   0.06848772844883343   0.006575128396412768   0.05289032227059727       0.98080791568001   -0.1325323215724957  
9.80000000e+09      0.9790390167697538   -0.1662189291673327   -0.02286537204843122   0.06988711472373078   0.006875788323414045   0.05399099186017371     0.9801315145496301   -0.1351161322938601  
1.00000000e+10       0.978199118952841   -0.1694886544744826   -0.02243823503273115   0.07128403716354161   0.007183981154499061   0.05509053171348627     0.9794461813234997   -0.1376916761834639  
