! Touchstone Ver. 1.0 
! Number of ports is 2
# Hz	S	RI	R	100.000000
! SCATTERING PARAMETERS  :
4.00000000e+09      0.7998505446091336    0.1789318372992704     -1.583568557447017   -0.6334332855940636   -0.0009935712516069757  0.0009866791107836649     0.6565292042670949     0.741712878089214  
4.12000000e+09      0.8025231448940275    0.1652414168525617     -1.669497711005187   -0.5936915292038839   -0.001037870961016443  0.001089590683869242     0.6943963658610433    0.7049796140928135  
4.24000000e+09      0.8049136619898098    0.1520111791787357     -1.758516407758726   -0.5490385633284206   -0.001082026572818994  0.001201752260497619     0.7306967630995131    0.6656064905875935  
4.36000000e+09      0.8070521065896952    0.1392045949945908     -1.851017241667171   -0.4987993021270083   -0.001125659363044952  0.001324317124504089     0.7653823982316346    0.6233935069469523  
4.48000000e+09      0.8089650444848979    0.1267875353850627     -1.947401758401964   -0.4421323965205783   -0.001168240797189462  0.001458622623882059     0.7983647659182824    0.5780895602078949  
4.60000000e+09      0.8106760659210801    0.1147278032672867     -2.048067461348271   -0.3779945178767693   -0.001209041433479574    0.0016062173963377     0.8295015483292489    0.5293875020846365  
4.72000000e+09      0.8122061413806307    0.1029946612397057     -2.153386944381338   -0.3050956094972621   -0.001247061992786883  0.001768890299352586     0.8585790428826259     0.476919002090174  
4.84000000e+09      0.8135738622905476   0.09155834330384086     -2.263674959405106   -0.2218432574002532   -0.001280940136362761  0.001948698832914497     0.8852887663144641    0.4202498603378503  
4.96000000e+09      0.8147955536771176   0.08038953793935742     -2.379137148578703   -0.1262743950277477   -0.001308824274972621  0.002147992658142474     0.9091961764675519    0.3588769832076419  
5.08000000e+09      0.8158852307521064   0.06945883198175336     -2.499791105184353  -0.01597316236420981   -0.001328202985239835  0.002369424030691287     0.9296988472043755    0.2922292024263864  
5.20000000e+09      0.8168543509491411   0.05873611104180453     -2.625345989752472     0.112024506200602   -0.001335675525985201  0.002615930531189793     0.9459707868402722    0.2196757368059336  
5.32000000e+09      0.8177112849831929   0.04818992732330593     -2.755020718869344    0.2613349567083344   -0.001326646241945744  0.002890664736869141     0.9568891065413362    0.1405487560068845  
5.44000000e+09      0.8184603936957673   0.03778687796956264     -2.887272580619262    0.4363265769874115   -0.001294925201368452  0.003196828004115795     0.9609394215892224   0.05419077037925194  
5.56000000e+09      0.8191005535044382   0.02749110113396534     -3.019398686113439    0.6421860302880522   -0.001232223572803109  0.003537338127606567     0.9560983126960481  -0.03995585206713297  
5.68000000e+09      0.8196229331659238   0.01726411678826443     -3.146965012412292      0.88489197808449   -0.001127554126383194  0.003914220228021236     0.9396971591702252   -0.1421904477901366  
5.80000000e+09      0.8200078219680601  0.007065449180813946     -3.263020697496037     1.170986191135961   -0.0009666024085866525  0.004327557143379004     0.9082859533876403   -0.2522878650355458  
5.92000000e+09      0.8202204267532248  -0.003145196689515939      -3.35708936010866      1.50695216833129   -0.0007312526531312469  0.004773782839886446     0.8575454327251949   -0.3690747426317446  
6.04000000e+09      0.8202059626550142  -0.01340297640894181     -3.414035950869992     1.897906961300876   -0.0003996756617229694  0.005243096434692797      0.782350333106035   -0.4898006477778171  
6.16000000e+09      0.8198853449683523  -0.02372852572887273     -3.413153742669495     2.345227582619752   5.225862147461542e-05  0.005715932250051996     0.6771706290236956   -0.6093006532340587  
6.28000000e+09      0.8191546481952793   -0.0341127198053489     -3.328265708425925     2.842812392225194   0.0006470686215147891  0.006158965146677722      0.537089340306184   -0.7190850903362259  
6.40000000e+09      0.8178940503353805  -0.04449619417388143      -3.13022306633266     3.372221144750693   0.001397980874525303  0.006522324328064047     0.3597187741235766   -0.8067845938879622  
6.52000000e+09      0.8159933641872863  -0.05474977216285225     -2.793431743777672     3.898305244232315   0.002297333267596861  0.006741440256603302     0.1479961313923732   -0.8567871918704657  
6.64000000e+09      0.8133968027096183  -0.06467049522078806     -2.306814129513955     4.368951323442942   0.003304299459142653  0.006747910175400851   -0.08700115013481108   -0.8530835997264832  
6.76000000e+09      0.8101545766270414  -0.07401233236051218     -1.685876394224781     4.723385301151499   0.004340106266571443  0.006490870858024626     -0.325235268839607   -0.7845514252144842  
6.88000000e+09      0.8064491496219738  -0.08255703117930631    -0.9779542328412691     4.909848020801081   0.005300257647191784  0.005961706851366579    -0.5410851573954841   -0.6507773767829567  
7.00000000e+09      0.8025636004140715  -0.09019655423282046    -0.2531676660417134     4.905159465750982   0.006084343201463067  0.005206296907503955    -0.7108064931818432   -0.4645594061380686  
7.12000000e+09      0.7987965369679877  -0.09697493000066564     0.4169896769538729     4.723532751414019   0.006628468911787702  0.004312903252966654    -0.8202372220653251   -0.2484323213984656  
7.24000000e+09      0.7953730577085663   -0.1030610619159565     0.9809087750804321      4.40850418257226   0.006920352161550953  0.003381709650572371    -0.8679831836483607  -0.02700242195180103  
7.36000000e+09      0.7924020838948116   -0.1086767369502887       1.41610189929719     4.014698009648266   0.006990903427098663  0.002495441579771632    -0.8628926077940753    0.1800744948324133  
7.48000000e+09      0.7898882134974667   -0.1140282523721204      1.725214068126504     3.591353779761667    0.00689310425688258  0.001705366542567535    -0.8186839571916249    0.3611628663233895  
7.60000000e+09      0.7877714165370995   -0.1192701878925459      1.925770148893697     3.174135509682385   0.006682440390804762  0.001032741924645428     -0.749202123166937    0.5119786803464771  
7.72000000e+09      0.7859661270588556   -0.1245000144713672      2.040566597947545     2.784444413616055   0.006405671496790256  0.0004778319023896549    -0.6658279294441093    0.6332113506471478  
7.84000000e+09      0.7843868879783479   -0.1297690880998499      2.091603654784102     2.432506821294117   0.006097320377363248  2.94621513332251e-05    -0.5767770370389144    0.7281392251484184  
7.96000000e+09      0.7829605244720736   -0.1350975817273585      2.097362945663517     2.121204398980082   0.005780583847364272  -0.0003280136218089627    -0.4874343172191659    0.8009470598189553  
8.08000000e+09      0.7816295071865257   -0.1404871884422652      2.072195300272613      1.84921945725194   0.005469860124598772  -0.0006106436586211918    -0.4010352856576886    0.8557752777463757  
8.20000000e+09      0.7803509275755176   -0.1459299954526768      2.026715545239047     1.613176805992826    0.00517335958107802  -0.0008329319531604413    -0.3193335504752909    0.8962880030284859  
8.32000000e+09       0.779093885958534   -0.1514139853981245      1.968529356336942     1.408938579164448    0.00489521814534137  -0.001007158132139291    -0.2431266464461392    0.9255415165417654  
8.44000000e+09      0.7778366970777483   -0.1569261463720636      1.902965789775349      1.23231378405968    0.00463702178288884  -0.001143344623410739    -0.1726279380829078    0.9460008983817045  
8.56000000e+09      0.7765644724106772   -0.1624540705219437       1.83369346727426     1.079405945950881   0.004398835441099772  -0.001249502196110899    -0.1077133011560067       0.9596164854222  
8.68000000e+09      0.7752672178940406   -0.1679866677930632      1.763196768808656    0.9467537170658367   0.004179868020438637  -0.001331960077661788   -0.04807776488079881    0.9679150542459702  
8.80000000e+09      0.7739384108170952   -0.1735143938382091      1.693127321060078    0.8313610595325642   0.003978888367561515  -0.00139569030065068     0.0066684096522728    0.9720855753681903  
8.92000000e+09      0.7725739653031134   -0.1790292295008915      1.624556696256368    0.7306733616278751   0.003794478004862291  -0.001444590856368615    0.05694276005863125    0.9730522929366059  
9.04000000e+09      0.7711714927239491   -0.1845245462313278      1.558155320370402    0.6425306932653218   0.003625179729761721  -0.001481718870642127     0.1031582136938848    0.9715339450224471  
9.16000000e+09      0.7697297780470047   -0.1899949300425917      1.494318019458124    0.5651145997590971   0.003469581151276003  -0.001509476600632291     0.1457057663620528    0.9680904373237549  
9.28000000e+09      0.7682484111057573   -0.1954360011280828      1.433251676546325    0.4968964794306603   0.003326358304417286  -0.001529757166783427     0.1849462354120521    0.9631590610982405  
9.40000000e+09      0.7667275277670382   -0.2008442465478802      1.375036257659172    0.4365910473472344   0.003194295244357475  -0.001544057629775339     0.2212073359777646    0.9570823661845207  
9.52000000e+09      0.7651676285960036   -0.2062168728225058      1.319667217668975     0.383116017038357   0.003072289551948113  -0.001553566317366767     0.2547837723428216    0.9501295319504592  
9.64000000e+09      0.7635694520279817   -0.2115516798468224      1.267084916212662    0.3355579636490129   0.002959349884823793  -0.001559230166480429     0.2859389431094902    0.9425127399314081  
9.76000000e+09      0.7619338858540321   -0.2168469549509132      1.217194975409886    0.2931438123294616    0.00285458931823259  -0.001561806688049022     0.3149074224871076    0.9343997313112764  
9.88000000e+09      0.7602619056490545   -0.2221013848626613      1.169882317965671    0.2552172131046458   0.002757216726271033  -0.00156190414924815     0.3418977275002085    0.9259234614047923  
1.00000000e+10      0.7585545321686293   -0.2273139830356041      1.125020792237976    0.2212190485193499   0.002666527527009607  -0.001560012737828518     0.3670950933850846    0.9171895462242617  
