! Touchstone Ver. 1.0 
! Number of ports is 2
# Hz	S	RI	R	50.000000
! SCATTERING PARAMETERS  :
4.00000000e+09      0.9417080962281246   -0.2019818485247762       1.80395074280938   -0.5461234321947246   0.0002311851116188666  -0.001266905970401578     0.8909516698622215    0.1527240115778411  
4.01000000e+09      0.9412726917040999   -0.2028365281535288      1.806819113759849   -0.5503292451948879   0.0002315982680089221  -0.001273171232042402     0.8910520454667492     0.152212293069269  
4.02000000e+09      0.9408331896466789   -0.2036946841785813      1.809698778742614   -0.5545612556451349   0.0002320044370380548  -0.001279471291218415     0.8911519485119246    0.1517025793465647  
4.03000000e+09      0.9403895438908354   -0.2045563361776013      1.812589752156346   -0.5588197526159094   0.0002324034484299503  -0.001285806439523033     0.8912513861633945    0.1511948537167759  
4.04000000e+09      0.9399417076847395   -0.2054215036356999      1.815492047419245   -0.5631050282130623   0.000232795128867702  -0.001292176971193818      0.891350365522479    0.1506890996095911  
4.05000000e+09      0.9394896336355897   -0.2062902061548997      1.818405676869125   -0.5674173778201855   0.0002331793017917298  -0.001298583183155426       0.89144889362694      0.15018530057534  
4.06000000e+09      0.9390332737457467   -0.2071624632397624       1.82133065180403   -0.5717570999501026   0.0002335557874800268  -0.001305025375025387     0.8915469774492857    0.1496834402824965  
4.07000000e+09      0.9385725793305304    -0.208038294632874      1.824266982325867   -0.5761244965926894   0.0002339244027611719  -0.001311503849157467     0.8916446239027556    0.1491835025165155  
4.08000000e+09       0.938107501118235   -0.2089177198048731      1.827214677505093   -0.5805198728012481   0.0002342849612975508  -0.001318018910638814     0.8917418398386544    0.1486854711771936  
4.09000000e+09      0.9376379891123139   -0.2098007585428999       1.83017374511324   -0.5849435372800781   0.0002346372731122693  -0.001324570867343487     0.8918386320482979    0.1481893302769691  
4.10000000e+09      0.9371639926823812   -0.2106874304827831      1.833144191769737    -0.589395802002957   0.0002349811448464205  -0.001331160029929173     0.8919350072635737    0.1476950639388052  
4.11000000e+09      0.9366854605083221   -0.2115777553170989      1.836126022828326   -0.5938769824558257   0.0002353163795469749  -0.001337786711875265      0.892030972158472    0.1472026563944054  
4.12000000e+09      0.9362023405699824   -0.2124717527916408      1.839119242337748   -0.5983873976834289   0.0002356427765979826  -0.001344451229504003     0.8921265333498547    0.1467120919822595  
4.13000000e+09      0.9357145801742567   -0.2133694425334829      1.842123853076773   -0.6029273701787566   0.0002359601317743554  -0.001351153901996104     0.8922216973999537    0.1462233551459393  
4.14000000e+09      0.9352221258885636   -0.2142708443001417      1.845139856405495    -0.607497226174006   0.0002362682369842031  -0.001357895051425008     0.8923164708127538     0.145736430431582  
4.15000000e+09      0.9347249235675683   -0.2151759778072696      1.848167252301441    -0.612097295524198   0.0002365668803248942  -0.00136467500277207     0.8924108600399787    0.1452513024867354  
4.16000000e+09      0.9342229183330089   -0.2160848627670491      1.851206039303498   -0.6167279118031279   0.0002368558459761028  -0.001371494083954959     0.8925048714793057    0.1447679560581194  
4.17000000e+09      0.9337160545627781   -0.2169975188840421      1.854256214464421    -0.621389412350202   0.000237134914124763  -0.001378352625845446      0.892598511475327    0.1442863759897633  
4.18000000e+09      0.9332042758797549   -0.2179139658511105      1.857317773312207   -0.6260821383239894   0.0002374038608892979  -0.001385250962295348     0.8926917863204751    0.1438065472211945  
4.19000000e+09      0.9326875251405012   -0.2188342233451077      1.860390709808352   -0.6308064347503881   0.0002376624582440706  -0.001392189430159226     0.8927847022572324    0.1433284547858027  
4.20000000e+09      0.9321657444333822   -0.2197583109806029       1.86347501632136   -0.6355626505415086   0.0002379104739677862  -0.001399168369317029     0.8928772654765775    0.1428520838086753  
4.21000000e+09      0.9316388750284065   -0.2206862484726796      1.866570683502409   -0.6403511386985209   0.0002381476714408903  -0.001406188122698261     0.8929694821210905    0.1423774195051397  
4.22000000e+09      0.9311068574328061   -0.2216180553391072      1.869677700373782   -0.6451722560978906   0.0002383738097782272  -0.001413249036298448     0.8930613582831585    0.1419044471785458  
4.23000000e+09      0.9305696313212325   -0.2225537511466702      1.872796054167915   -0.6500263637749639   0.0002385886435615475  -0.001420351459208635     0.8931529000083765    0.1414331522189045  
4.24000000e+09      0.9300271355231058   -0.2234933555058225        1.8759257302754   -0.6549138269832373   0.0002387919227490059  -0.001427495743637806     0.8932441132943354    0.1409635201008245  
4.25000000e+09      0.9294793080689008   -0.2244368878146172      1.879066712311333   -0.6598350150113709   0.0002389833927802534  -0.00143468224492627      0.893335004092517    0.1404955363818528  
4.26000000e+09      0.9289260861091303   -0.2253843675458131       1.88221898192732   -0.6647903015151225   0.0002391627942638594  -0.001441911321576943     0.8934255783084875    0.1400291867006962  
4.27000000e+09      0.9283674059505682   -0.2263358140323398      1.885382518852452   -0.6697800643802934   0.0002393298630433267  -0.001449183335269177     0.8935158418012676    0.1395644567752273  
4.28000000e+09      0.9278032030037791   -0.2272912466284348      1.888557300769703   -0.6748046859321214   0.000239484329981973  -0.001456498650889644     0.8936058003875818    0.1391013324012953  
4.29000000e+09      0.9272334117995475    -0.228250684578325      1.891743303306927   -0.6798645528819874   0.0002396259209563412  -0.001463857636544333     0.8936954598379265    0.1386397994502827  
4.30000000e+09      0.9266579659756828   -0.2292141470101157      1.894940499988417   -0.6849600563777841   0.0002397543567682294  -0.001471260663582019     0.8937848258818264    0.1381798438680297  
4.31000000e+09      0.9260767982434295   -0.2301816530126184      1.898148862127336   -0.6900915921518009   0.0002398693529720756  -0.001478708106615169     0.8938739042034606     0.137721451672411  
4.32000000e+09      0.9254898403632845   -0.2311532216701669      1.901368358758646   -0.6952595606135553   0.0002399706197494591  -0.001486200343548131     0.8939627004472854    0.1372646089523509  
4.33000000e+09      0.9248970232018017   -0.2321288717645847      1.904598956700603   -0.7004643666355126   0.0002400578620300282  -0.001493737755577423     0.8940512202146613    0.1368093018654317  
4.34000000e+09      0.9242982766162456   -0.2331086221837935      1.907840620301948   -0.7057064200112336   0.0002401307790607431  -0.001501320727232538       0.89413946906663    0.1363555166366278  
4.35000000e+09      0.9236935295108667   -0.2340924916234206      1.911093311512888   -0.7109861352383448   0.0002401890645293198  -0.001508949646382372     0.8942274525241865    0.1359032395564621  
4.36000000e+09      0.9230827098123113   -0.2350804986209413      1.914356989797819   -0.7163039316235414   0.0002402324064205988  -0.001516624904255944     0.8943151760674931    0.1354524569791276  
4.37000000e+09      0.9224657444342788   -0.2360726616307101      1.917631612026516    -0.721660233424975   0.0002402604868395038  -0.001524346895463623     0.8944026451371381    0.1350031553209134  
4.38000000e+09      0.9218425592726229   -0.2370689989742009       1.92091713242243   -0.7270554698714833   0.000240272981933095  -0.001532116018010916     0.8944898651360399    0.1345553210586732  
4.39000000e+09      0.9212130791794895   -0.2380695288730949      1.924213502472979   -0.7324900752741951   0.000240269561737722  -0.00153993267332185     0.8945768414282477     0.134108940727926  
4.40000000e+09       0.920577227968473   -0.2390742693577337      1.927520670891885   -0.7379644890099566   0.0002402498901279063  -0.001547797266249347     0.8946635793391238    0.1336640009210829  
4.41000000e+09      0.9199349283989973    -0.240083238258303       1.93083858354589   -0.7434791555850991   0.0002402136246992688  -0.001555710205092136     0.8947500841572906    0.1332204882859589  
4.42000000e+09      0.9192861021499678   -0.2410964532369086      1.934167183352488   -0.7490345247427792   0.0002401604166093682  -0.001563671901609811      0.894836361133912    0.1327783895239323  
4.43000000e+09      0.9186306697716824   -0.2421139319017853      1.937506410144629   -0.7546310516535815   0.0002400899103499463  -0.001571682771048258     0.8949224154841873    0.1323376913884634  
4.44000000e+09      0.9179685507324686   -0.2431356915496516      1.940856200699134   -0.7602691967402221   0.000240001743821286  -0.001579743232134761     0.8950082523853606    0.1318983806829603  
4.45000000e+09      0.9172996633491775   -0.2441617493618595       1.94421648856055   -0.7659494259468638   0.0002398955480344038  -0.001587853707107166     0.8950938769801925     0.131460444259611  
4.46000000e+09      0.9166239248231793   -0.2451921221880917      1.947587204059393   -0.7716722106095604   0.0002397709471495969  -0.001596014621720026     0.8951792943756605    0.1310238690173922  
4.47000000e+09      0.9159412511487062   -0.2462268268231455      1.950968274061059   -0.7774380278056042   0.0002396275580925559  -0.001604226405256294     0.8952645096426811     0.130588641900373  
4.48000000e+09      0.9152515571697739   -0.2472658797081956      1.954359622042495   -0.7832473601436262   0.0002394649906667437  -0.001612489490541969     0.8953495278185503    0.1301547498962445  
4.49000000e+09      0.9145547565090548   -0.2483092971243982      1.957761167874265   -0.7891006960367335   0.0002392828472293251  -0.001620804313951578     0.8954343539046274    0.1297221800343167  
4.50000000e+09      0.9138507616144913   -0.2493570949350876      1.961172827869779   -0.7949985295298878   0.0002390807227671608  -0.001629171315418959     0.8955189928694989    0.1292909193841422  
4.51000000e+09       0.913139483643821   -0.2504092889421821      1.964594514473786   -0.8009413607395801   0.0002388582044197016  -0.001637590938446884      0.895603449645737    0.1288609550534714  
4.52000000e+09       0.912420832488684   -0.2514658947091955      1.968026136261349   -0.8069296957613213   0.0002386148714781989   -0.0016460636301168     0.8956877291342256    0.1284322741870576  
4.53000000e+09      0.9116947168544189   -0.2525269271803913      1.971467598028823   -0.8129640463847365   0.0002383502955512427  -0.001654589841083428     0.8957718361999494    0.1280048639642135  
4.54000000e+09      0.9109610440773375    -0.253592401280633      1.974918800357144   -0.8190449307675368   0.0002380640398739239  -0.001663170025595158     0.8958557756769379    0.1275787115979783  
4.55000000e+09       0.910219720203474   -0.2546623315332826      1.978379639697398   -0.8251728731526572   0.000237755659466062  -0.001671804641487091     0.8959395523645171     0.127153804332744  
4.56000000e+09      0.9094706499360863   -0.2557367321682857      1.981850008192805   -0.8313484040613032   0.000237424700863325  -0.001680494150185924     0.8960231710292337    0.1267301294428238  
4.57000000e+09      0.9087137366600708   -0.2568156169445381      1.985329793662839   -0.8375720602087863   0.0002370707020998173  -0.001689239016713481     0.8961066364052395    0.1263076742307192  
4.58000000e+09      0.9079488823665365    -0.257898999338176      1.988818879360717   -0.8438443847835944   0.0002366931923512339  -0.001698039709683573     0.8961899531932019    0.1258864260253065  
4.59000000e+09       0.907175987620696   -0.2589868925670026       1.99231714383225   -0.8501659275626738   0.0002362916917260601  -0.001706896701302721      0.896273126062068    0.1254663721803561  
4.60000000e+09      0.9063949516419374   -0.2600793092086682      1.995824461006459   -0.8565372446275918   0.0002358657114236597  -0.001715810467365402     0.8963561596477403    0.1250475000724785  
4.61000000e+09      0.9056056721822767   -0.2611762615495651      1.999340699849468   -0.8629588988062479   0.0002354147532172172  -0.001724781487248439     0.8964390585529349    0.1246297970994995  
4.62000000e+09      0.9048080455044607   -0.2622777615668903      2.002865724238461   -0.8694314597471613   0.0002349383092734789  -0.001733810243906532     0.8965218273499809    0.1242132506790906  
4.63000000e+09      0.9040019664736709   -0.2633838205060041      2.006399393067966     -0.87595550360147   0.0002344358623364722  -0.001742897223864126     0.8966044705763774    0.1237978482462789  
4.64000000e+09      0.9031873283770764   -0.2644944494286515      2.009941559771822    -0.882531613661685   0.0002339068850129678  -0.00175204291720356     0.8966869927391883    0.1233835772524955  
4.65000000e+09      0.9023640230379761    -0.265609658708472      2.013492072474107    -0.889160379960012   0.0002333508400281638  -0.001761247817553319      0.896769398311588    0.1229704251631709  
4.66000000e+09      0.9015319407022175   -0.2667294583348815      2.017050773653317    -0.895842399669213   0.0002327671797261939  -0.001770512422076433      0.896851691735425    0.1225583794564495  
4.67000000e+09      0.9006909700727032     -0.26785385769093      2.020617500113791   -0.9025782769846304   0.0002321553460555838  -0.001779837231453479     0.8969338774191826     0.122147427621077  
4.68000000e+09      0.8998409982288159   -0.2689828657338719      2.024192082706886   -0.9093686234021688   0.0002315147701711518  -0.001789222749860134     0.8970159597393317    0.1217375571548838  
4.69000000e+09      0.8989819106956611   -0.2701164906518986      2.027774346385425   -0.9162140574789942   0.000230844872534502  -0.001798669484956352     0.8970979430395295    0.1213287555627833  
4.70000000e+09      0.8981135912812115    -0.271254740324446      2.031364109727237   -0.9231152054035571   0.0002301450622255197  -0.001808177947852177     0.8971798316294276    0.1209210103550501  
4.71000000e+09      0.8972359222154245   -0.2723976217367478      2.034961185140446   -0.9300727004994644   0.0002294147372805562  -0.001817748653092076     0.8972616297874318    0.1205143090456277  
4.72000000e+09      0.8963487840214492   -0.2735451413182531      2.038565378456374   -0.9370871836827356   0.0002286532841067105  -0.001827382118621462     0.8973433417567631    0.1201086391500089  
4.73000000e+09      0.8954520554552188   -0.2746973050379862      2.042176488685519   -0.9441593036626351   0.0002278600771383941   -0.0018370788657583     0.8974249717483387    0.1197039881838772  
4.74000000e+09      0.8945456136342347   -0.2758541178590168      2.045794308174713    -0.951289716488991   0.0002270344791217428  -0.001846839419161376     0.8975065239391691    0.1193003436608267  
4.75000000e+09      0.8936293338353094   -0.2770155843131896      2.049418622034426    -0.958479086253171   0.0002261758402759443  -0.001856664306789138     0.8975880024718749    0.1188976930908076  
4.76000000e+09      0.8927030896234862   -0.2781817079548223      2.053049208295074   -0.9657280846328088   0.0002252834985752725  -0.001866554059866033     0.8976694114546675    0.1184960239780341  
4.77000000e+09        0.89176675269553   -0.2793524917727626      2.056685837426512   -0.9730373914279451   0.0002243567790576289  -0.001876509212835529     0.8977507549609893    0.1180953238193565  
4.78000000e+09      0.8908201929253823   -0.2805279379225378      2.060328272305267    -0.980407694393611   0.0002233949938180912  -0.00188653030331974      0.897832037030356    0.1176955801024085  
4.79000000e+09       0.889863278374647   -0.2817080475783535      2.063976268085093   -0.9878396892018999   0.0002223974418693206  -0.001896617872066842     0.8979132616645502    0.1172967803032243  
4.80000000e+09      0.8888958751455512   -0.2828928213008901      2.067629571732341   -0.9953340799276905   0.0002213634084792586  -0.001906772462895439      0.897994432831572    0.1168989118851091  
4.81000000e+09       0.887917847487115   -0.2840822585693523      2.071287922107091    -1.002891578683175   0.0002202921653491859  -0.001916994622645458     0.8980755544615462    0.1165019622960372  
4.82000000e+09      0.8869290576959085   -0.2852763579883916      2.074951049588477    -1.010512905942625   0.0002191829700999924  -0.001927284901114478     0.8981566304481102    0.1161059189670983  
4.83000000e+09      0.8859293660517581   -0.2864751173737657      2.078618675769409     -1.01819879074512   0.0002180350658689765  -0.001937643850989627     0.8982376646482972     0.115710769310684  
4.84000000e+09       0.884918630900512   -0.2876785333624389      2.082290513469256    -1.025949970406411   0.0002168476813971283  -0.001948072027783416     0.8983186608788811      0.11531650071795  
4.85000000e+09      0.8838967085282881    -0.288886601694721      2.085966266293906     -1.03376719092526   0.0002156200304148013  -0.001958569989761605     0.8983996229192681    0.1149231005574864  
4.86000000e+09      0.8828634531951653   -0.2900993169808444      2.089645628531493    -1.041651206850514   0.0002143513115599513  -0.001969138297865672     0.8984805545110204    0.1145305561732299  
4.87000000e+09      0.8818187170699348    -0.291316672782753      2.093328284814808    -1.049602781493748   0.0002130407079411472  -0.001979777515626023      0.898561459352637    0.1141388548820127  
4.88000000e+09      0.8807623502014981    -0.292538661576046      2.097013909883651    -1.057622686995233   0.0002116873868459399  -0.001990488209079668     0.8986423411042596    0.1137479839722196  
4.89000000e+09      0.8796942005151586   -0.2937652746322871      2.100702168371756    -1.065711704324428   0.0002102904995043751  -0.002001270946675213     0.8987232033821517    0.1133579307011526  
4.90000000e+09      0.8786141137965942   -0.2949965019400704      2.104392714589023     -1.07387062330372   0.0002088491808314342  -0.002012126299184301     0.8988040497632752     0.112968682293626  
4.91000000e+09      0.8775219335873183   -0.2962323323988026      2.108085192060387    -1.082100242941727   0.0002073625488295754  -0.002023054839582608     0.8988848837785556    0.1125802259393803  
4.92000000e+09      0.8764175012308031   -0.2974727535407634       2.11177923342962    -1.090401371247459   0.0002058297045298063  -0.002034057142951053     0.8989657089155692    0.1121925487912954  
4.93000000e+09      0.8753006558178837   -0.2987177515659682      2.115474460121636    -1.098774825387388   0.0002042497315703674  -0.002045133786362635     0.8990465286172051    0.1118056379633381  
4.94000000e+09      0.8741712341955168   -0.2999673111803716      2.119170482143271    -1.107221431630505   0.0002026216959893257  -0.002056285348769361     0.8991273462804972    0.1114194805283765  
4.95000000e+09      0.8730290708094546   -0.3012214159386969      2.122866897469592    -1.115742025830703   0.0002009446454301947  -0.002067512410842908     0.8992081652535487      0.11103406351611  
4.96000000e+09      0.8718739978658019   -0.3024800476128124       2.12656329220956     -1.12433745286661   0.0001992176094632042  -0.002078815554885577     0.8992889888380252    0.1106493739109789  
4.97000000e+09       0.870705845095973   -0.3037431867647459      2.130259239796132     -1.13300856737331   0.0001974395985072999  -0.00209019536464678     0.8993698202852805    0.1102653986501628  
4.98000000e+09      0.8695244398803742   -0.3050108122294201      2.133954301033745    -1.141756233302205   0.0001956096040023887  -0.002101652425203597     0.8994506627965162    0.1098821246212663  
