! Touchstone Ver. 1.0 
! Number of ports is 2
# Hz	S	RI	R	100.000000	200.000000	
! SCATTERING PARAMETERS  :
4.00000000e+09      0.6641207356328057   -0.2442495092933198                      0                     0                      0                     0                      1                     0  
4.10000000e+09      0.6622272402092404   -0.2498743370812225                      0                     0                      0                     0                      1                     0  
4.20000000e+09      0.6602958243203136    -0.255480348304258                      0                     0                      0                     0                      1                     0  
4.30000000e+09      0.6583266234937565   -0.2610669485735509                      0                     0                      0                     0                      1                     0  
4.40000000e+09      0.6563198011099531   -0.2666335613451073                      0                     0                      0                     0                      1                     0  
4.50000000e+09      0.6542755455884953   -0.2721796273866414                      0                     0                      0                     0                      1                     0  
4.60000000e+09      0.6521940679972998   -0.2777046042871179                      0                     0                      0                     0                      1                     0  
4.70000000e+09      0.6500755998566127   -0.2832079659290067                      0                     0                      0                     0                      1                     0  
4.80000000e+09      0.6479203912785528   -0.2886892020104556                      0                     0                      0                     0                      1                     0  
4.90000000e+09      0.6457287092577191   -0.2941478175633866                      0                     0                      0                     0                      1                     0  
5.00000000e+09      0.6435008361647371   -0.2995833325023639                      0                     0                      0                     0                      1                     0  
5.10000000e+09      0.6412370684125688   -0.3049952811959274                      0                     0                      0                     0                      1                     0  
5.20000000e+09      0.6389377152683682   -0.3103832120690061                      0                     0                      0                     0                      1                     0  
5.30000000e+09      0.6366030977351733   -0.3157466872053005                      0                     0                      0                     0                      1                     0  
5.40000000e+09       0.634233547602008   -0.3210852819999839                      0                     0                      0                     0                      1                     0  
5.50000000e+09      0.6318294065516363   -0.3263985848159988                      0                     0                      0                     0                      1                     0  
5.60000000e+09      0.6293910253485189   -0.3316861966666146                      0                     0                      0                     0                      1                     0  
5.70000000e+09      0.6269187631042308   -0.3369477309153959                      0                     0                      0                     0                      1                     0  
5.80000000e+09      0.6244129866127157   -0.3421828129978168                      0                     0                      0                     0                      1                     0  
5.90000000e+09      0.6218740697162151   -0.3473910801502183                      0                     0                      0                     0                      1                     0  
6.00000000e+09      0.6193023927565224   -0.3525721811706556                      0                     0                      0                     0                      1                     0  
6.10000000e+09      0.6166983420214387   -0.3577257761692029                      0                     0                      0                     0                      1                     0  
6.20000000e+09      0.6140623092651327   -0.3628515363527382                      0                     0                      0                     0                      1                     0  
6.30000000e+09      0.6113946912755549   -0.3679491438202913                      0                     0                      0                     0                      1                     0  
6.40000000e+09      0.6086958893990904   -0.3730182913390876                      0                     0                      0                     0                      1                     0  
6.50000000e+09      0.6059663091999943   -0.3780586821823088                      0                     0                      0                     0                      1                     0  
6.60000000e+09      0.6032063600316988   -0.3830700299186373                      0                     0                      0                     0                      1                     0  
6.70000000e+09       0.600416454731727   -0.3880520582574268                      0                     0                      0                     0                      1                     0  
6.80000000e+09      0.5975970092572893   -0.3930045008658029                      0                     0                      0                     0                      1                     0  
6.90000000e+09       0.594748442391593   -0.3979271012171804                      0                     0                      0                     0                      1                     0  
7.00000000e+09      0.5918711754338888   -0.4028196124255002                      0                     0                      0                     0                      1                     0  
7.10000000e+09       0.588965631930314   -0.4076817971030111                      0                     0                      0                     0                      1                     0  
7.20000000e+09      0.5860322373957534   -0.4125134272058013                      0                     0                      0                     0                      1                     0  
7.30000000e+09      0.5830714190547809   -0.4173142838895338                      0                     0                      0                     0                      1                     0  
7.40000000e+09      0.5800836056199365   -0.4220841573822682                      0                     0                      0                     0                      1                     0  
7.50000000e+09      0.5770692270370598   -0.4268228468353636                      0                     0                      0                     0                      1                     0  
7.60000000e+09      0.5740287142630387   -0.4315301601894673                      0                     0                      0                     0                      1                     0  
7.70000000e+09      0.5709624990731801   -0.4362059140565168                      0                     0                      0                     0                      1                     0  
7.80000000e+09       0.567871013839659    -0.440849933579621                      0                     0                      0                     0                      1                     0  
7.90000000e+09       0.564754691334179   -0.4454620523074533                      0                     0                      0                     0                      1                     0  
8.00000000e+09      0.5616139645517869   -0.4500421120724559                      0                     0                      0                     0                      1                     0  
8.10000000e+09      0.5584492665246498   -0.4545899628690386                      0                     0                      0                     0                      1                     0  
8.20000000e+09      0.5552610301464291   -0.4591054627260759                      0                     0                      0                     0                      1                     0  
8.30000000e+09      0.5520496880066117   -0.4635884775892984                      0                     0                      0                     0                      1                     0  
8.40000000e+09      0.5488156722278061   -0.4680388811996136                      0                     0                      0                     0                      1                     0  
8.50000000e+09      0.5455594143197866   -0.4724565549786655                      0                     0                      0                     0                      1                     0  
8.60000000e+09      0.5422813450172776    -0.476841387904952                      0                     0                      0                     0                      1                     0  
8.70000000e+09      0.5389818941531797   -0.4811932764055499                      0                     0                      0                     0                      1                     0  
8.80000000e+09      0.5356614904989716   -0.4855121242254629                      0                     0                      0                     0                      1                     0  
8.90000000e+09      0.5323205616509479   -0.4897978423256572                      0                     0                      0                     0                      1                     0  
9.00000000e+09      0.5289595338912569   -0.4940503487610353                      0                     0                      0                     0                      1                     0  
9.10000000e+09      0.5255788320650311   -0.4982695685633826                      0                     0                      0                     0                      1                     0  
9.20000000e+09       0.522178879477918   -0.5024554336423451                      0                     0                      0                     0                      1                     0  
9.30000000e+09       0.518760097750917    -0.506607882646001                      0                     0                      0                     0                      1                     0  
9.40000000e+09      0.5153229067385091   -0.5107268608716018                      0                     0                      0                     0                      1                     0  
9.50000000e+09      0.5118677244139735     -0.51481232014428                      0                     0                      0                     0                      1                     0  
9.60000000e+09      0.5083949667584566   -0.5188642186981608                      0                     0                      0                     0                      1                     0  
9.70000000e+09      0.5049050476720793   -0.5228825210720233                      0                     0                      0                     0                      1                     0  
9.80000000e+09      0.5013983788869008   -0.5268671980018108                      0                     0                      0                     0                      1                     0  
9.90000000e+09      0.4978753698629463   -0.5308182263013349                      0                     0                      0                     0                      1                     0  
1.00000000e+10      0.4943364277075006   -0.5347355887547789                      0                     0                      0                     0                      1                     0  
! NOISE PARAMETERS  :
4.00000000e+09   1.797693134862316e+308                   nan                  -nan   1.797693134862316e+308 
4.10000000e+09   1.797693134862316e+308                   nan                  -nan   1.797693134862316e+308 
4.20000000e+09   1.797693134862316e+308                   nan                  -nan   1.797693134862316e+308 
4.30000000e+09   1.797693134862316e+308                   nan                  -nan   1.797693134862316e+308 
4.40000000e+09   1.797693134862316e+308                   nan                  -nan   1.797693134862316e+308 
4.50000000e+09   1.797693134862316e+308                   nan                  -nan   1.797693134862316e+308 
4.60000000e+09   1.797693134862316e+308                   nan                  -nan   1.797693134862316e+308 
4.70000000e+09   1.797693134862316e+308                   nan                  -nan   1.797693134862316e+308 
4.80000000e+09   1.797693134862316e+308                   nan                  -nan   1.797693134862316e+308 
4.90000000e+09   1.797693134862316e+308                   nan                  -nan   1.797693134862316e+308 
5.00000000e+09   1.797693134862316e+308                   nan                  -nan   1.797693134862316e+308 
5.10000000e+09   1.797693134862316e+308                   nan                  -nan   1.797693134862316e+308 
5.20000000e+09   1.797693134862316e+308                   nan                  -nan   1.797693134862316e+308 
5.30000000e+09   1.797693134862316e+308                   nan                  -nan   1.797693134862316e+308 
5.40000000e+09   1.797693134862316e+308                   nan                  -nan   1.797693134862316e+308 
5.50000000e+09   1.797693134862316e+308                   nan                  -nan   1.797693134862316e+308 
5.60000000e+09   1.797693134862316e+308                   nan                  -nan   1.797693134862316e+308 
5.70000000e+09   1.797693134862316e+308                   nan                  -nan   1.797693134862316e+308 
5.80000000e+09   1.797693134862316e+308                   nan                  -nan   1.797693134862316e+308 
5.90000000e+09   1.797693134862316e+308                   nan                  -nan   1.797693134862316e+308 
6.00000000e+09   1.797693134862316e+308                   nan                  -nan   1.797693134862316e+308 
6.10000000e+09   1.797693134862316e+308                   nan                  -nan   1.797693134862316e+308 
6.20000000e+09   1.797693134862316e+308                   nan                  -nan   1.797693134862316e+308 
6.30000000e+09   1.797693134862316e+308                   nan                  -nan   1.797693134862316e+308 
6.40000000e+09   1.797693134862316e+308                   nan                  -nan   1.797693134862316e+308 
6.50000000e+09   1.797693134862316e+308                   nan                  -nan   1.797693134862316e+308 
6.60000000e+09   1.797693134862316e+308                   nan                  -nan   1.797693134862316e+308 
6.70000000e+09   1.797693134862316e+308                   nan                  -nan   1.797693134862316e+308 
6.80000000e+09   1.797693134862316e+308                   nan                  -nan   1.797693134862316e+308 
6.90000000e+09   1.797693134862316e+308                   nan                  -nan   1.797693134862316e+308 
7.00000000e+09   1.797693134862316e+308                   nan                  -nan   1.797693134862316e+308 
7.10000000e+09   1.797693134862316e+308                   nan                  -nan   1.797693134862316e+308 
7.20000000e+09   1.797693134862316e+308                   nan                  -nan   1.797693134862316e+308 
7.30000000e+09   1.797693134862316e+308                   nan                  -nan   1.797693134862316e+308 
7.40000000e+09   1.797693134862316e+308                   nan                  -nan   1.797693134862316e+308 
7.50000000e+09   1.797693134862316e+308                   nan                  -nan   1.797693134862316e+308 
7.60000000e+09   1.797693134862316e+308                   nan                  -nan   1.797693134862316e+308 
7.70000000e+09   1.797693134862316e+308                   nan                  -nan   1.797693134862316e+308 
7.80000000e+09   1.797693134862316e+308                   nan                  -nan   1.797693134862316e+308 
7.90000000e+09   1.797693134862316e+308                   nan                  -nan   1.797693134862316e+308 
8.00000000e+09   1.797693134862316e+308                   nan                  -nan   1.797693134862316e+308 
8.10000000e+09   1.797693134862316e+308                   nan                  -nan   1.797693134862316e+308 
8.20000000e+09   1.797693134862316e+308                   nan                  -nan   1.797693134862316e+308 
8.30000000e+09   1.797693134862316e+308                   nan                  -nan   1.797693134862316e+308 
8.40000000e+09   1.797693134862316e+308                   nan                  -nan   1.797693134862316e+308 
8.50000000e+09   1.797693134862316e+308                   nan                  -nan   1.797693134862316e+308 
8.60000000e+09   1.797693134862316e+308                   nan                  -nan   1.797693134862316e+308 
8.70000000e+09   1.797693134862316e+308                   nan                  -nan   1.797693134862316e+308 
8.80000000e+09   1.797693134862316e+308                   nan                  -nan   1.797693134862316e+308 
8.90000000e+09   1.797693134862316e+308                   nan                  -nan   1.797693134862316e+308 
9.00000000e+09   1.797693134862316e+308                   nan                  -nan   1.797693134862316e+308 
9.10000000e+09   1.797693134862316e+308                   nan                  -nan   1.797693134862316e+308 
9.20000000e+09   1.797693134862316e+308                   nan                  -nan   1.797693134862316e+308 
9.30000000e+09   1.797693134862316e+308                   nan                  -nan   1.797693134862316e+308 
9.40000000e+09   1.797693134862316e+308                   nan                  -nan   1.797693134862316e+308 
9.50000000e+09   1.797693134862316e+308                   nan                  -nan   1.797693134862316e+308 
9.60000000e+09   1.797693134862316e+308                   nan                  -nan   1.797693134862316e+308 
9.70000000e+09   1.797693134862316e+308                   nan                  -nan   1.797693134862316e+308 
9.80000000e+09   1.797693134862316e+308                   nan                  -nan   1.797693134862316e+308 
9.90000000e+09   1.797693134862316e+308                   nan                  -nan   1.797693134862316e+308 
1.00000000e+10   1.797693134862316e+308                   nan                  -nan   1.797693134862316e+308 

