! Touchstone Ver. 1.0 
! Number of ports is 2
# Hz	S	RI	R	50.000000	100.000000	
! SCATTERING PARAMETERS  :
4.00000000e+09     -0.5912564593019809    0.6237908594562358      3.596789842806971    0.9684392443085506   0.002522329357978035  -0.001048358754017715     0.8744207029465031   -0.4031676748388935  
4.10000000e+09     -0.5569823329791795    0.6395840112303564      3.864407718976461    0.8015095066179549   0.002718141561879342  -0.001268330505238796     0.8691411481152522   -0.4205512380360615  
4.20000000e+09     -0.5197098922032402    0.6537550598297758      4.138365498934632    0.5976963761012714   0.002915572996354344  -0.001524421130797134     0.8634455267915602   -0.4380913794368595  
4.30000000e+09     -0.4793788948755609    0.6659272720543932      4.415279132221678     0.351963545323927   0.003112041979937878    -0.001821842635236     0.8572549981393189   -0.4558075340341464  
4.40000000e+09     -0.4359460900503312    0.6754422035707147      4.690172230964535   0.05937447871472439   0.003302026306332186  -0.002164778733629844      0.850485472234595   -0.4737059121686679  
4.50000000e+09     -0.3893791837935666    0.6816189252229754      4.955964423418538   -0.2852850107221715   0.003477390997855245  -0.002558754466136987     0.8430311035290007   -0.4917680582654225  
4.60000000e+09     -0.3399456431529171    0.6837354295940681      5.204208651574857    -0.686406975053103   0.003630462328683579  -0.003006944719704937     0.8347840267176252   -0.5099618641592014  
4.70000000e+09     -0.2879832453930145     0.680912429996813      5.423965211714469    -1.147353798368093   0.003749553846254363  -0.003512728345937558     0.8256182987699152   -0.5282179850058669  
4.80000000e+09       -0.23409322196987    0.6723564970498468       5.60252188705164    -1.669168291519433   0.003821569147259226  -0.004076684456842077     0.8154191058012601   -0.5464359547836005  
4.90000000e+09     -0.1791397575173687    0.6572648692403111      5.723984980832796    -2.250093648089987   0.003831908702990748  -0.004696046555729501     0.8040803692771539   -0.5644625787906982  
5.00000000e+09     -0.1243378354321096    0.6349912516699487      5.773341370825585    -2.884704409123783   0.003764105972664818  -0.005364796570883455     0.7915155577508939   -0.5821128333744646  
5.10000000e+09     -0.0710879880033078    0.6050107875681759      5.733320413721387    -3.562448672821541   0.003601430886629714  -0.006071629037831434     0.7776905772719966   -0.5991481276395336  
5.20000000e+09    -0.02106611197861112    0.5674457658092152      5.589903736527852    -4.268330093916643   0.003330826457006233  -0.006801394589385851       0.76261472125478   -0.6153156329607501  
5.30000000e+09     0.02387123502909376    0.5226796554722182      5.331568322225826     -4.98013661433848   0.002940532340962548  -0.007530862371092285     0.7464057394583479   -0.6303376800754282  
5.40000000e+09     0.06209108930574887    0.4717414438859431      4.952470200065973    -5.673610914698157   0.002426138002819329  -0.008235584645059085     0.7292334658951607    -0.643955765040249  
5.50000000e+09     0.09199545158854992    0.4161387182406031      4.454798299208925    -6.320537872105663   0.001789545283933042  -0.008886043138515124     0.7113824640871971   -0.6559729069359587  
5.60000000e+09      0.1128420908161619    0.3579472633701862      3.848171386940543    -6.895441203831289     0.0010424752173879  -0.009459069841251196     0.6931518032656301   -0.6662612501926528  
5.70000000e+09      0.1240561336002848    0.2992161852364639      3.149871015828459    -7.373946543421575   0.0002006515734667417  -0.009927875271369912     0.6749184728691109   -0.6747910277840482  
5.80000000e+09      0.1261171744449076    0.2423976811451599       2.38339205444868    -7.739327586177022   -0.0007102243343933716  -0.01027757459229665     0.6570119433851296   -0.6816435845524635  
5.90000000e+09      0.1199742521771634    0.1893592763163239      1.575445449901197     -7.98207875304335   -0.001663960811252464  -0.01049984114447927     0.6397418635881262    -0.686996384156854  
6.00000000e+09      0.1069231160646738    0.1416077696562906     0.7529944892800868    -8.099882894685276   -0.002635042094868236  -0.01058945271966487     0.6233390281215827   -0.6910714986130388  
6.10000000e+09     0.08889234718814286    0.1002812961840988   -0.05943467089434399    -8.099555469925575   -0.003596884360595166  -0.01055639105687308     0.6079314749844167   -0.6941584778179924  
6.20000000e+09     0.06755787534821245   0.06585411696576633    -0.8411715773018528    -7.990559139332189   -0.004530411446932648   -0.0104088819589318     0.5935920579855727   -0.6965290689846999  
6.30000000e+09     0.04465519562229514   0.03828143449034165     -1.575927139025539    -7.787270354717513   -0.005421040036331147  -0.01016051754139297      0.580303607086353   -0.6984483191272928  
6.40000000e+09     0.02172372126052901   0.01722664759558945     -2.254221569015483    -7.506080925293234   -0.006256908268376721  -0.009827890256342498     0.5679867113072028   -0.7001240308894398  
6.50000000e+09    -1.777413171455413e-05  0.001979481322523853     -2.869243347724487     -7.16118021468429   -0.007033955275125183  -0.009423589914417852     0.5565428052881766   -0.7017434593579864  
6.60000000e+09    -0.01956181990611306  -0.008248232733121483     -3.418667376338792    -6.767349053830403   -0.007748458171700391  -0.008961921122205417     0.5458441414313451   -0.7034286999309302  
6.70000000e+09    -0.03628119740199964   -0.0143792443914603     -3.903065632740709    -6.336859410275841   -0.008401523221276273  -0.008453961298995002     0.5357562056613494   -0.7052590727175654  
6.80000000e+09    -0.04971844234226974  -0.01731861789048893     -4.324025060692045     -5.88010378117954   -0.00899499943365247  -0.00790810159895701     0.5261595259103791   -0.7073018630746186  
6.90000000e+09    -0.05952732958443118  -0.01789651537950669     -4.685262458277342    -5.405469422006522   -0.009529567850393911  -0.007332464855993277     0.5169182832727726   -0.7095512362416742  
7.00000000e+09    -0.06565720337622594  -0.01702164109985715     -4.989747202690114    -4.919690356377069   -0.01000960343714095  -0.006732139088761697     0.5079487236581526   -0.7120251916834833  
7.10000000e+09    -0.06812455028706121  -0.01547471878752469     -5.241120214262642    -4.428309433211668   -0.01043838501975869  -0.006112519554934932     0.4991550431008897   -0.7146946826128781  
7.20000000e+09     -0.0671161535636834  -0.01390416201790344     -5.442982080858377    -3.935324460231194   -0.01081691874949656  -0.00547515761470771     0.4904616154644914   -0.7175388487391028  
7.30000000e+09    -0.06274984087044821   -0.0129058790854637     -5.598454715832806    -3.444372600933491   -0.01114613478500353  -0.00482160948458571     0.4818067156806536   -0.7205156657634757  
7.40000000e+09    -0.05531369719052026   -0.0131024083787824     -5.710396470072212    -2.957874900122146   -0.01142787223316606  -0.004155846837130969     0.4731437785411563   -0.7235786069041887  
7.50000000e+09     -0.0451808894185276  -0.01499609583570361     -5.781017355716323    -2.478158319521551   -0.01166189081110396  -0.003478807850594472     0.4644447797698055   -0.7266788476114848  
7.60000000e+09    -0.03271460903275625  -0.01895789639114355     -5.812730030848283    -2.007538314625637   -0.01184871075526272  -0.002790637769944342     0.4556740150061989   -0.7297796322204232  
7.70000000e+09    -0.01834358380620727  -0.02544746875201504     -5.806693894622667    -1.548011205103058   -0.01198599579943594  -0.002095779571236362     0.4468332234559729   -0.7328258503740509  
7.80000000e+09    -0.002501888656010751  -0.03471282150940347     -5.764794958429258    -1.101296115287018   -0.01207231107256816  -0.00139327022293545      0.437902473624642   -0.7357733302044833  
7.90000000e+09     0.01421319967035028   -0.0470860304078429     -5.688228285477715   -0.6698004302341191   -0.01210688981646728  -0.0006903814609080779     0.4289101120983789   -0.7385713514633383  
8.00000000e+09     0.03121131797696685  -0.06262501001217687     -5.578900245953948   -0.2564888635616182   -0.01208952336746783  1.002099994699919e-05     0.4198618641043515   -0.7411904769089425  
8.10000000e+09     0.04800881783286992  -0.08133020784158668     -5.438744969473789    0.1364988565137818   -0.01201735483210629  0.0007042793465717136     0.4107851162328882   -0.7435902883870995  
8.20000000e+09     0.06407445035810477   -0.1032107814669344     -5.269807017450341    0.5070928875848935   -0.01189167787400111  0.001386081023443801     0.4017150532131905   -0.7457432579996285  
8.30000000e+09     0.07887288004133586   -0.1280627639255666     -5.075077450410341    0.8526353961523877   -0.01171283607215395  0.002052059558516939      0.392678958716274   -0.7476459593545295  
8.40000000e+09     0.09186432320884408   -0.1557949296866702     -4.856670494117493     1.171345423259216   -0.01148259535248873  0.002695765521441197     0.3837106221259621   -0.7492833049480381  
8.50000000e+09       0.102613558325811   -0.1860324599031531     -4.617884774742874     1.461205694890522   -0.01120338236745525   0.00331202091797603     0.3748589038923962   -0.7506573251983415  
8.60000000e+09      0.1106963083902777   -0.2184140879897554     -4.362111470490271     1.720905876219723   -0.01087737931453511  0.003895067832797189     0.3661520273371305   -0.7517616297834843  
8.70000000e+09      0.1158313445115391   -0.2525320054051624     -4.092854595023836     1.949299016038326   -0.01050625813116616  0.004439897222687813     0.3576210132875012   -0.7526101221123923  
8.80000000e+09      0.1177228779968018   -0.2878659915534512     -3.814040238728974     2.145469545240577    -0.0100982108195251  0.004942313759449683      0.349304275070814   -0.7532393404533027  
8.90000000e+09       0.116268886941574   -0.3238598927626138     -3.529660704471266     2.309625216294006   -0.009658030385508587  0.005399089591490613     0.3412252872820107    -0.753668397333077  
9.00000000e+09      0.1114068988618479    -0.360037796282477     -3.243237527764009     2.442342573837567   -0.009191809428727113  0.005806805400761903     0.3334069127731792   -0.7539247419939945  
9.10000000e+09      0.1031754377965261   -0.3959135582424312     -2.958263467460641     2.544662648647849   -0.008705953205390776  0.006163218719032484     0.3258652934335426   -0.7540411788959278  
9.20000000e+09     0.09173701554931113   -0.4310172709499038     -2.678250670677409     2.618129299086391   -0.008206418032934959   0.00646683855187612     0.3186079803837749    -0.754057131356852  
9.30000000e+09     0.07733152409760979    -0.464883328165046     -2.406120782248089     2.664833110166797   -0.007699297659033578  0.006721382072603564     0.3116275307452703   -0.7540067187621077  
9.40000000e+09     0.06018541878709739   -0.4971589308927092     -2.144337435416285     2.687023190508596    -0.0071921070248998  0.006926546828267045     0.3049225379059244   -0.7539245446534508  
9.50000000e+09     0.04061248140551225   -0.5275562385230967     -1.894924272032662      2.68722441649596   -0.006690310575026995  0.007084381241155829     0.2984820662982109   -0.7538420823942722  
9.60000000e+09     0.01897373045422283    -0.555875124678916     -1.659403244269309      2.66809637775564   -0.006197329925041894   0.00719806470633426     0.2922898963390315   -0.7537866073348046  
9.70000000e+09    -0.00437230656189542     -0.58194751629387     -1.438807435840462     2.632362564654751   -0.005716845197192601   0.00727133815026765     0.2863241399787995   -0.7537742281336316  
9.80000000e+09    -0.02909858960479084   -0.6056866058284821     -1.233706873350555     2.582570364546373   -0.005253360343166612  0.007307334199478621     0.2805700257993778   -0.7538256658710977  
9.90000000e+09    -0.05487137895372964    -0.627055593182486     -1.044408762716204     2.521232050675765   -0.004809413827763187  0.007310066444577645     0.2750034635420036   -0.7539558325295826  
1.00000000e+10    -0.08137390469184479   -0.6460670474952792    -0.8708837323834039     2.450718509604651   -0.004386598361982551  0.007283670722076507     0.2695990532661372   -0.7541741559671609  
! NOISE PARAMETERS  :
4.00000000e+09      3.575130187161399    0.7485492781316392    -136.3229532442653     0.5010248662869912 
4.10000000e+09      3.468078562334234    0.7308232693779447    -134.3607307563715     0.4886279854712748 
4.20000000e+09      3.365707589593152    0.7117223862257158    -132.3158186454432     0.4763023902521442 
4.30000000e+09      3.267691049206246    0.6912120265915277    -130.1829277801024     0.4641326009642052 
4.40000000e+09      3.173855504463138    0.6691757461190841    -127.9615815135218     0.4520279015241929 
4.50000000e+09      3.084324671822387    0.6456116571019997    -125.6475631673714     0.4401393900949197 
4.60000000e+09      2.999007212805239    0.6204244493599075    -123.2409158778587     0.4284032545262904 
4.70000000e+09      2.918017058538782    0.5936161333440804     -120.742798411793     0.4168764674208954 
4.80000000e+09      2.840898211694292     0.565200832242699     -118.149957697467     0.4055547638061352 
4.90000000e+09      2.768626704426115    0.5351825921707036    -115.4643552232157     0.3945870678298417 
5.00000000e+09      2.700050918502512    0.5037081712866034    -112.6886599611732     0.3838521205352177 
5.10000000e+09      2.636226391173595    0.4707419394798445    -109.8255372476308     0.3734483233976959 
5.20000000e+09      2.576562849809089    0.4365713843170508    -106.8816790285214     0.3633624715414226 
5.30000000e+09      2.521237581866635    0.4013871329812365    -103.8524484429907     0.3536739115640257 
5.40000000e+09      2.470467806496528    0.3653957602051602    -100.7382348117676     0.3444122610694901 
5.50000000e+09      2.424488792490377    0.3288465809474861    -97.54852983186338     0.3355692266573626 
5.60000000e+09      2.382802528527598    0.2921486731367214    -94.25588857135396     0.3271959885256742 
5.70000000e+09      2.345954408057267    0.2554512274519967    -90.85113347481558     0.3192837051858355 
5.80000000e+09      2.314006223202571    0.2193588737203516    -87.28084917261125     0.3119749325947991 
5.90000000e+09      2.286590123610861    0.1840460620029834    -83.46755376644556     0.3051602457718841 
6.00000000e+09      2.264519634392627     0.149836179872777    -79.22719701679517     0.2990078139371927 
6.10000000e+09      2.246848137380759    0.1171549068073478    -74.20170080806513     0.2934264226730693 
6.20000000e+09       2.23440232988879   0.08643407336788182     -67.6138407632251      0.288536802030144 
6.30000000e+09      2.226853856740057   0.05832944832703043     -57.1657360800531     0.2843857561430589 
6.40000000e+09      2.223792181589213   0.03485615727418597    -35.61014114535003      0.280875413896603 
6.50000000e+09      2.225796421930113   0.02444583256560528     14.66910170973254     0.2781960840175379 
6.60000000e+09      2.232464204295645    0.0353065940310576     59.37629946803195     0.2763203618250094 
6.70000000e+09      2.243616154847719   0.05367445767994864     77.34937370969782     0.2752646783224311 
6.80000000e+09        2.2593284492907   0.07250495266927878     85.80850861588887     0.2750734746254951 
6.90000000e+09       2.27952131609257   0.09035538572572778     90.61211174214979      0.275839508756048 
7.00000000e+09      2.303768448859073    0.1070531026708818     93.66743477646021     0.2775357821083198 
7.10000000e+09      2.332221966635037    0.1225181011012606     95.64400843188155     0.2802873030326614 
7.20000000e+09      2.364354516578215    0.1370096009472588        96.97552551871     0.2839836410465943 
7.30000000e+09      2.400440951195321    0.1506304970024441      97.7514724253064     0.2888354950137367 
7.40000000e+09      2.440007198850259    0.1636421307160437     98.12904379816636     0.2947980774465925 
7.50000000e+09      2.482977235536162    0.1763018639184628     98.19641189322145     0.3019227668221017 
7.60000000e+09      2.528948732458689    0.1888507844078689     98.02082847342685     0.3102250967978407 
7.70000000e+09      2.578173132844355    0.2015290174241797     97.66480195187096     0.3198084692676086 
7.80000000e+09      2.630572554848154    0.2145962244265248     97.18621390632227     0.3307427383085666 
7.90000000e+09      2.685875780223012    0.2282248753984504     96.65403942202929     0.3430230942505019 
8.00000000e+09      2.743922824655603    0.2425477988586036     96.12027764894741     0.3566807820226598 
8.10000000e+09        2.8046106974683    0.2576559760745979     95.62565713924165     0.3717664000243334 
8.20000000e+09      2.867713337599716    0.2735891734554249     95.19085230787503     0.3883536039404245 
8.30000000e+09      2.932790996764804     0.290376012459056     94.85201599865891     0.4064167212969997 
8.40000000e+09      3.000097226922856    0.3080800329621955     94.63211430754549     0.4260861947817025 
8.50000000e+09      3.069370144222979    0.3266169692054105     94.53530865823798     0.4474174083849506 
8.60000000e+09      3.140312983003763    0.3459569005161768      94.5886505217825     0.4703586014303141 
8.70000000e+09      3.213236529025373    0.3660094046502645     94.78981776488649     0.4950483677904885 
8.80000000e+09      3.288169393100738    0.3866702050652486     95.12710758748365     0.5216222263858755 
8.90000000e+09      3.364693997340372    0.4077886830774438     95.60130022915777     0.5500116662440035 
9.00000000e+09      3.442816808129887    0.4292570656851559     96.20524793760246     0.5802849933742776 
9.10000000e+09      3.522547861450569    0.4509503784444757     96.92817797028731     0.6125160928655763 
9.20000000e+09      3.604008028481979    0.4727284907214168     97.75238876185871     0.6468457200162363 
9.30000000e+09      3.687032133102521    0.4944599993098593     98.66886638181423     0.6832817055417675 
9.40000000e+09       3.77149681265897    0.5160163311213974     99.66626745183167     0.7218427635594512 
9.50000000e+09      3.857357273655743     0.537288526140674     100.7317284064371     0.7625945548494806 
9.60000000e+09      3.944608749257801    0.5581903841398956     101.8521371869588     0.8056500337162473 
9.70000000e+09      4.033434098033044     0.578618983653471     103.0167873180134     0.8511106287600243 
9.80000000e+09       4.12359500232817    0.5984999090491353     104.2154783812338     0.8989949409719796 
9.90000000e+09      4.214997036326906    0.6177660832980983     105.4391553779311      0.949339960422299 
1.00000000e+10      4.307524726001459    0.6363603025340607     106.6796713132921      1.002160686529296 

