! Touchstone Ver. 1.0 
! Number of ports is 2
# Hz	S	RI	R	100.000000	200.000000	
! SCATTERING PARAMETERS  :
4.00000000e+09     -0.8849524810516002    0.3426608294458926                      0                     0                      0                     0                      1                     0  
4.10000000e+09     -0.8785417344845293    0.3537828344549261                      0                     0                      0                     0                      1                     0  
4.20000000e+09     -0.8717132228456104    0.3650971478126862                      0                     0                      0                     0                      1                     0  
4.30000000e+09     -0.8644308266733299    0.3766291383561722                      0                     0                      0                     0                      1                     0  
4.40000000e+09     -0.8566787123363949    0.3883537655888112                      0                     0                      0                     0                      1                     0  
4.50000000e+09     -0.8483843789767171    0.4002837044904788                      0                     0                      0                     0                      1                     0  
4.60000000e+09      -0.839538759597646    0.4124175176483459                      0                     0                      0                     0                      1                     0  
4.70000000e+09      -0.830076519566126    0.4247393139552951                      0                     0                      0                     0                      1                     0  
4.80000000e+09     -0.8199444961643554    0.4372443366292363                      0                     0                      0                     0                      1                     0  
4.90000000e+09     -0.8090891429245826    0.4499118433108495                      0                     0                      0                     0                      1                     0  
5.00000000e+09     -0.7974615795947056    0.4627224677035521                      0                     0                      0                     0                      1                     0  
5.10000000e+09      -0.784953515891564    0.4756538541702132                      0                     0                      0                     0                      1                     0  
5.20000000e+09     -0.7715465879182154    0.4886407566414622                      0                     0                      0                     0                      1                     0  
5.30000000e+09     -0.7571362650180793    0.5016581647532186                      0                     0                      0                     0                      1                     0  
5.40000000e+09     -0.7416501810221676    0.5146376852230179                      0                     0                      0                     0                      1                     0  
5.50000000e+09      -0.724994982827322     0.527473363918699                      0                     0                      0                     0                      1                     0  
5.60000000e+09     -0.7070934829214645    0.5401027093716831                      0                     0                      0                     0                      1                     0  
5.70000000e+09     -0.6878477043085464    0.5523642886569694                      0                     0                      0                     0                      1                     0  
5.80000000e+09     -0.6672054458301498    0.5641227406110119                      0                     0                      0                     0                      1                     0  
5.90000000e+09     -0.6451125327208941    0.5751739301103586                      0                     0                      0                     0                      1                     0  
6.00000000e+09     -0.6215082934715165    0.5853064200794892                      0                     0                      0                     0                      1                     0  
6.10000000e+09     -0.5964329578257739    0.5942586989559977                      0                     0                      0                     0                      1                     0  
6.20000000e+09     -0.5699004297346745    0.6017288084179855                      0                     0                      0                     0                      1                     0  
6.30000000e+09     -0.5420462114988217    0.6073923937736789                      0                     0                      0                     0                      1                     0  
6.40000000e+09     -0.5131088030508377    0.6109452728802796                      0                     0                      0                     0                      1                     0  
6.50000000e+09     -0.4833840272250984    0.6120552061707634                      0                     0                      0                     0                      1                     0  
6.60000000e+09     -0.4533592345363097    0.6104658488276987                      0                     0                      0                     0                      1                     0  
6.70000000e+09      -0.423597916367699    0.6060308645162412                      0                     0                      0                     0                      1                     0  
6.80000000e+09      -0.394735379899214    0.5987694816258399                      0                     0                      0                     0                      1                     0  
6.90000000e+09     -0.3675518206700167    0.5889336493787293                      0                     0                      0                     0                      1                     0  
7.00000000e+09     -0.3426282056423406    0.5770169107848928                      0                     0                      0                     0                      1                     0  
7.10000000e+09     -0.3205642898250493     0.563745497062161                      0                     0                      0                     0                      1                     0  
7.20000000e+09     -0.3015030116146894    0.5500685947877803                      0                     0                      0                     0                      1                     0  
7.30000000e+09     -0.2854384212937035    0.5370269364236873                      0                     0                      0                     0                      1                     0  
7.40000000e+09     -0.2718929077551739    0.5255522745515566                      0                     0                      0                     0                      1                     0  
7.50000000e+09     -0.2601258697049321    0.5163840831608776                      0                     0                      0                     0                      1                     0  
7.60000000e+09      -0.249139007807092    0.5100359727361174                      0                     0                      0                     0                      1                     0  
7.70000000e+09     -0.2379671788631574    0.5066307003719362                      0                     0                      0                     0                      1                     0  
7.80000000e+09     -0.2255431005183236    0.5059881657785524                      0                     0                      0                     0                      1                     0  
7.90000000e+09     -0.2110159685253989    0.5076932642502141                      0                     0                      0                     0                      1                     0  
8.00000000e+09     -0.1936985039950037     0.511100387029842                      0                     0                      0                     0                      1                     0  
8.10000000e+09     -0.1730636890433623    0.5155114542120937                      0                     0                      0                     0                      1                     0  
8.20000000e+09     -0.1487994901170551     0.520069928833598                      0                     0                      0                     0                      1                     0  
8.30000000e+09     -0.1207699721910461    0.5240560697312954                      0                     0                      0                     0                      1                     0  
8.40000000e+09    -0.08895151483739858    0.5266280746324588                      0                     0                      0                     0                      1                     0  
8.50000000e+09    -0.05351897037277123    0.5270507109729115                      0                     0                      0                     0                      1                     0  
8.60000000e+09    -0.01467656539314062    0.5245248756591229                      0                     0                      0                     0                      1                     0  
8.70000000e+09      0.0272597181264214    0.5184474675307478                      0                     0                      0                     0                      1                     0  
8.80000000e+09     0.07175757150113581    0.5080612481829588                      0                     0                      0                     0                      1                     0  
8.90000000e+09      0.1183323740025817     0.492873652737834                      0                     0                      0                     0                      1                     0  
9.00000000e+09      0.1662089869747805     0.472353482624181                      0                     0                      0                     0                      1                     0  
9.10000000e+09      0.2146518579235785    0.4460719031824436                      0                     0                      0                     0                      1                     0  
9.20000000e+09      0.2627698239293163    0.4137024798496344                      0                     0                      0                     0                      1                     0  
9.30000000e+09      0.3096284521604347    0.3751104832582455                      0                     0                      0                     0                      1                     0  
9.40000000e+09      0.3542246087237713    0.3303301345393863                      0                     0                      0                     0                      1                     0  
9.50000000e+09       0.395502529216621    0.2795516375082802                      0                     0                      0                     0                      1                     0  
9.60000000e+09      0.4324590860716999    0.2232040588027618                      0                     0                      0                     0                      1                     0  
9.70000000e+09      0.4641683395121095    0.1619004440758399                      0                     0                      0                     0                      1                     0  
9.80000000e+09      0.4897397369672287   0.09640836104735015                      0                     0                      0                     0                      1                     0  
9.90000000e+09      0.5086223012863824   0.02773055757158935                      0                     0                      0                     0                      1                     0  
1.00000000e+10      0.5203648188531476  -0.04306086002290265                      0                     0                      0                     0                      1                     0  
! NOISE PARAMETERS  :
4.00000000e+09   1.797693134862316e+308                   nan                  -nan   1.797693134862316e+308 
4.10000000e+09   1.797693134862316e+308                   nan                  -nan   1.797693134862316e+308 
4.20000000e+09   1.797693134862316e+308                   nan                  -nan   1.797693134862316e+308 
4.30000000e+09   1.797693134862316e+308                   nan                  -nan   1.797693134862316e+308 
4.40000000e+09   1.797693134862316e+308                   nan                  -nan   1.797693134862316e+308 
4.50000000e+09   1.797693134862316e+308                   nan                  -nan   1.797693134862316e+308 
4.60000000e+09   1.797693134862316e+308                   nan                  -nan   1.797693134862316e+308 
4.70000000e+09   1.797693134862316e+308                   nan                  -nan   1.797693134862316e+308 
4.80000000e+09   1.797693134862316e+308                   nan                  -nan   1.797693134862316e+308 
4.90000000e+09   1.797693134862316e+308                   nan                  -nan   1.797693134862316e+308 
5.00000000e+09   1.797693134862316e+308                   nan                  -nan   1.797693134862316e+308 
5.10000000e+09   1.797693134862316e+308                   nan                  -nan   1.797693134862316e+308 
5.20000000e+09   1.797693134862316e+308                   nan                  -nan   1.797693134862316e+308 
5.30000000e+09   1.797693134862316e+308                   nan                  -nan   1.797693134862316e+308 
5.40000000e+09   1.797693134862316e+308                   nan                  -nan   1.797693134862316e+308 
5.50000000e+09   1.797693134862316e+308                   nan                  -nan   1.797693134862316e+308 
5.60000000e+09   1.797693134862316e+308                   nan                  -nan   1.797693134862316e+308 
5.70000000e+09   1.797693134862316e+308                   nan                  -nan   1.797693134862316e+308 
5.80000000e+09   1.797693134862316e+308                   nan                  -nan   1.797693134862316e+308 
5.90000000e+09   1.797693134862316e+308                   nan                  -nan   1.797693134862316e+308 
6.00000000e+09   1.797693134862316e+308                   nan                  -nan   1.797693134862316e+308 
6.10000000e+09   1.797693134862316e+308                   nan                  -nan   1.797693134862316e+308 
6.20000000e+09   1.797693134862316e+308                   nan                  -nan   1.797693134862316e+308 
6.30000000e+09   1.797693134862316e+308                   nan                  -nan   1.797693134862316e+308 
6.40000000e+09   1.797693134862316e+308                   nan                  -nan   1.797693134862316e+308 
6.50000000e+09   1.797693134862316e+308                   nan                  -nan   1.797693134862316e+308 
6.60000000e+09   1.797693134862316e+308                   nan                  -nan   1.797693134862316e+308 
6.70000000e+09   1.797693134862316e+308                   nan                  -nan   1.797693134862316e+308 
6.80000000e+09   1.797693134862316e+308                   nan                  -nan   1.797693134862316e+308 
6.90000000e+09   1.797693134862316e+308                   nan                  -nan   1.797693134862316e+308 
7.00000000e+09   1.797693134862316e+308                   nan                  -nan   1.797693134862316e+308 
7.10000000e+09   1.797693134862316e+308                   nan                  -nan   1.797693134862316e+308 
7.20000000e+09   1.797693134862316e+308                   nan                  -nan   1.797693134862316e+308 
7.30000000e+09   1.797693134862316e+308                   nan                  -nan   1.797693134862316e+308 
7.40000000e+09   1.797693134862316e+308                   nan                  -nan   1.797693134862316e+308 
7.50000000e+09   1.797693134862316e+308                   nan                  -nan   1.797693134862316e+308 
7.60000000e+09   1.797693134862316e+308                   nan                  -nan   1.797693134862316e+308 
7.70000000e+09   1.797693134862316e+308                   nan                  -nan   1.797693134862316e+308 
7.80000000e+09   1.797693134862316e+308                   nan                  -nan   1.797693134862316e+308 
7.90000000e+09   1.797693134862316e+308                   nan                  -nan   1.797693134862316e+308 
8.00000000e+09   1.797693134862316e+308                   nan                  -nan   1.797693134862316e+308 
8.10000000e+09   1.797693134862316e+308                   nan                  -nan   1.797693134862316e+308 
8.20000000e+09   1.797693134862316e+308                   nan                  -nan   1.797693134862316e+308 
8.30000000e+09   1.797693134862316e+308                   nan                  -nan   1.797693134862316e+308 
8.40000000e+09   1.797693134862316e+308                   nan                  -nan   1.797693134862316e+308 
8.50000000e+09   1.797693134862316e+308                   nan                  -nan   1.797693134862316e+308 
8.60000000e+09   1.797693134862316e+308                   nan                  -nan   1.797693134862316e+308 
8.70000000e+09   1.797693134862316e+308                   nan                  -nan   1.797693134862316e+308 
8.80000000e+09   1.797693134862316e+308                   nan                  -nan   1.797693134862316e+308 
8.90000000e+09   1.797693134862316e+308                   nan                  -nan   1.797693134862316e+308 
9.00000000e+09   1.797693134862316e+308                   nan                  -nan   1.797693134862316e+308 
9.10000000e+09   1.797693134862316e+308                   nan                  -nan   1.797693134862316e+308 
9.20000000e+09   1.797693134862316e+308                   nan                  -nan   1.797693134862316e+308 
9.30000000e+09   1.797693134862316e+308                   nan                  -nan   1.797693134862316e+308 
9.40000000e+09   1.797693134862316e+308                   nan                  -nan   1.797693134862316e+308 
9.50000000e+09   1.797693134862316e+308                   nan                  -nan   1.797693134862316e+308 
9.60000000e+09   1.797693134862316e+308                   nan                  -nan   1.797693134862316e+308 
9.70000000e+09   1.797693134862316e+308                   nan                  -nan   1.797693134862316e+308 
9.80000000e+09   1.797693134862316e+308                   nan                  -nan   1.797693134862316e+308 
9.90000000e+09   1.797693134862316e+308                   nan                  -nan   1.797693134862316e+308 
1.00000000e+10   1.797693134862316e+308                   nan                  -nan   1.797693134862316e+308 

