! Touchstone Ver. 1.0 
! Number of ports is 2
# Hz	S	RI	R	50.000000	300.000000	
! SCATTERING PARAMETERS  :
4.00000000e+09      -0.596087521732364    0.6319291379219791                      0                     0                      0                     0    -0.9998455047126522  1.224417157911856e-16  
4.10000000e+09     -0.5618480929540673    0.6491951229863197                      0                     0                      0                     0    -0.9998455047126522  1.224417157911856e-16  
4.20000000e+09     -0.5244366858004147    0.6651036633697427                      0                     0                      0                     0    -0.9998455047126522  1.224417157911856e-16  
4.30000000e+09     -0.4837133638321133    0.6792998855310526                      0                     0                      0                     0    -0.9998455047126522  1.224417157911856e-16  
4.40000000e+09     -0.4395279470818205    0.6911399256137212                      0                     0                      0                     0    -0.9998455047126522  1.224417157911856e-16  
4.50000000e+09     -0.3917172382753835    0.6999323073213845                      0                     0                      0                     0    -0.9998455047126522  1.224417157911856e-16  
4.60000000e+09     -0.3403863051706918    0.7049099551636198                      0                     0                      0                     0    -0.9998455047126522  1.224417157911856e-16  
4.70000000e+09     -0.2856890947350372    0.7050904508133808                      0                     0                      0                     0    -0.9998455047126522  1.224417157911856e-16  
4.80000000e+09     -0.2280316178113668    0.6995080732747196                      0                     0                      0                     0    -0.9998455047126522  1.224417157911856e-16  
4.90000000e+09     -0.1680951466509233    0.6870785021239728                      0                     0                      0                     0    -0.9998455047126522  1.224417157911856e-16  
5.00000000e+09     -0.1069732967523487     0.666775118916129                      0                     0                      0                     0    -0.9998455047126522  1.224417157911856e-16  
5.10000000e+09    -0.04604933783508183    0.6375606785713779                      0                     0                      0                     0    -0.9998455047126522  1.224417157911856e-16  
5.20000000e+09     0.01283112471423941     0.598985604001787                      0                     0                      0                     0    -0.9998455047126522  1.224417157911856e-16  
5.30000000e+09      0.0673903405163139    0.5508174672509534                      0                     0                      0                     0    -0.9998455047126522  1.224417157911856e-16  
5.40000000e+09      0.1153024911511402    0.4935791845058179                      0                     0                      0                     0    -0.9998455047126522  1.224417157911856e-16  
5.50000000e+09      0.1539870176000224    0.4284967734130709                      0                     0                      0                     0    -0.9998455047126522  1.224417157911856e-16  
5.60000000e+09      0.1815894952107624    0.3577460451956416                      0                     0                      0                     0    -0.9998455047126522  1.224417157911856e-16  
5.70000000e+09      0.1963477786412617    0.2839127466052244                      0                     0                      0                     0    -0.9998455047126522  1.224417157911856e-16  
5.80000000e+09      0.1978002727516275    0.2104935829735798                      0                     0                      0                     0    -0.9998455047126522  1.224417157911856e-16  
5.90000000e+09      0.1863511239994282    0.1407589304965517                      0                     0                      0                     0    -0.9998455047126522  1.224417157911856e-16  
6.00000000e+09      0.1632724374874837   0.07783561707470874                      0                     0                      0                     0    -0.9998455047126522  1.224417157911856e-16  
6.10000000e+09      0.1311954934445472     0.024417616072693                      0                     0                      0                     0    -0.9998455047126522  1.224417157911856e-16  
6.20000000e+09     0.09303152678275239  -0.01778379286077353                      0                     0                      0                     0    -0.9998455047126522  1.224417157911856e-16  
6.30000000e+09     0.05221504748042816  -0.04819683436377559                      0                     0                      0                     0    -0.9998455047126522  1.224417157911856e-16  
6.40000000e+09     0.01206229220755529  -0.06735586249217861                      0                     0                      0                     0    -0.9998455047126522  1.224417157911856e-16  
6.50000000e+09    -0.02479857609402447   -0.0768726085903996                      0                     0                      0                     0    -0.9998455047126522  1.224417157911856e-16  
6.60000000e+09    -0.05661232773527068  -0.07886305312675689                      0                     0                      0                     0    -0.9998455047126522  1.224417157911856e-16  
6.70000000e+09    -0.08275136697443986   -0.0755248579299046                      0                     0                      0                     0    -0.9998455047126522  1.224417157911856e-16  
6.80000000e+09     -0.1032183520966049  -0.06862594033136277                      0                     0                      0                     0    -0.9998455047126522  1.224417157911856e-16  
6.90000000e+09     -0.1182529285525576  -0.05939919804561146                      0                     0                      0                     0    -0.9998455047126522  1.224417157911856e-16  
7.00000000e+09     -0.1282828885685587   -0.0487784285375053                      0                     0                      0                     0    -0.9998455047126522  1.224417157911856e-16  
7.10000000e+09     -0.1335742882856319  -0.03740056729635659                      0                     0                      0                     0    -0.9998455047126522  1.224417157911856e-16  
7.20000000e+09     -0.1343238881279447  -0.02570261718932576                      0                     0                      0                     0    -0.9998455047126522  1.224417157911856e-16  
7.30000000e+09     -0.1304800687895914  -0.01414826935514043                      0                     0                      0                     0    -0.9998455047126522  1.224417157911856e-16  
7.40000000e+09     -0.1220345175764556  -0.003334269244173264                      0                     0                      0                     0    -0.9998455047126522  1.224417157911856e-16  
7.50000000e+09     -0.1089305819071781  0.006081057802948472                      0                     0                      0                     0    -0.9998455047126522  1.224417157911856e-16  
7.60000000e+09    -0.09108016222974334   0.01336037565119276                      0                     0                      0                     0    -0.9998455047126522  1.224417157911856e-16  
7.70000000e+09    -0.06851959072536462   0.01730876368756923                      0                     0                      0                     0    -0.9998455047126522  1.224417157911856e-16  
7.80000000e+09    -0.04151615518801721   0.01663467856611184                      0                     0                      0                     0    -0.9998455047126522  1.224417157911856e-16  
7.90000000e+09     -0.0110946198792029  0.009653223695565314                      0                     0                      0                     0    -0.9998455047126522  1.224417157911856e-16  
8.00000000e+09     0.02091707237711637  -0.004927871654514604                      0                     0                      0                     0    -0.9998455047126522  1.224417157911856e-16  
8.10000000e+09     0.05205405730703605  -0.02766356256972173                      0                     0                      0                     0    -0.9998455047126522  1.224417157911856e-16  
8.20000000e+09     0.07956031204841252  -0.05787988299030537                      0                     0                      0                     0    -0.9998455047126522  1.224417157911856e-16  
8.30000000e+09      0.1014321802021447  -0.09350283908978135                      0                     0                      0                     0    -0.9998455047126522  1.224417157911856e-16  
8.40000000e+09       0.116917007085791    -0.132171499399007                      0                     0                      0                     0    -0.9998455047126522  1.224417157911856e-16  
8.50000000e+09      0.1265716912826167   -0.1717471603479481                      0                     0                      0                     0    -0.9998455047126522  1.224417157911856e-16  
8.60000000e+09      0.1314008557979924   -0.2110409988935762                      0                     0                      0                     0    -0.9998455047126522  1.224417157911856e-16  
8.70000000e+09      0.1324251118879249   -0.2496244834141647                      0                     0                      0                     0    -0.9998455047126522  1.224417157911856e-16  
8.80000000e+09      0.1302733157882718   -0.2873952248672708                      0                     0                      0                     0    -0.9998455047126522  1.224417157911856e-16  
8.90000000e+09      0.1253331246892046   -0.3243672537520523                      0                     0                      0                     0    -0.9998455047126522  1.224417157911856e-16  
9.00000000e+09      0.1177398232642583   -0.3605796232558341                      0                     0                      0                     0    -0.9998455047126522  1.224417157911856e-16  
9.10000000e+09      0.1075378654047357   -0.3959613181679708                      0                     0                      0                     0    -0.9998455047126522  1.224417157911856e-16  
9.20000000e+09      0.0948038845516974   -0.4303463491947553                      0                     0                      0                     0    -0.9998455047126522  1.224417157911856e-16  
9.30000000e+09     0.07964716918965545   -0.4634674782234452                      0                     0                      0                     0    -0.9998455047126522  1.224417157911856e-16  
9.40000000e+09      0.0621617186463907   -0.4950887134122685                      0                     0                      0                     0    -0.9998455047126522  1.224417157911856e-16  
9.50000000e+09     0.04253771518567179   -0.5249823957347642                      0                     0                      0                     0    -0.9998455047126522  1.224417157911856e-16  
9.60000000e+09     0.02103033627459958   -0.5529659425781231                      0                     0                      0                     0    -0.9998455047126522  1.224417157911856e-16  
9.70000000e+09    -0.002081825449885989   -0.5788736383090347                      0                     0                      0                     0    -0.9998455047126522  1.224417157911856e-16  
9.80000000e+09    -0.02653390463722072   -0.6025998202480876                      0                     0                      0                     0    -0.9998455047126522  1.224417157911856e-16  
9.90000000e+09    -0.05203674698365318   -0.6240780953544309                      0                     0                      0                     0    -0.9998455047126522  1.224417157911856e-16  
1.00000000e+10    -0.07830151281565018   -0.6432917172152307                      0                     0                      0                     0    -0.9998455047126522  1.224417157911856e-16  
! NOISE PARAMETERS  :
4.00000000e+09   1.797693134862316e+308                   nan                  -nan   1.797693134862316e+308 
4.10000000e+09   1.797693134862316e+308                   nan                  -nan   1.797693134862316e+308 
4.20000000e+09   1.797693134862316e+308                   nan                  -nan   1.797693134862316e+308 
4.30000000e+09   1.797693134862316e+308                   nan                  -nan   1.797693134862316e+308 
4.40000000e+09   1.797693134862316e+308                   nan                  -nan   1.797693134862316e+308 
4.50000000e+09   1.797693134862316e+308                   nan                  -nan   1.797693134862316e+308 
4.60000000e+09   1.797693134862316e+308                   nan                  -nan   1.797693134862316e+308 
4.70000000e+09   1.797693134862316e+308                   nan                  -nan   1.797693134862316e+308 
4.80000000e+09   1.797693134862316e+308                   nan                  -nan   1.797693134862316e+308 
4.90000000e+09   1.797693134862316e+308                   nan                  -nan   1.797693134862316e+308 
5.00000000e+09   1.797693134862316e+308                   nan                  -nan   1.797693134862316e+308 
5.10000000e+09   1.797693134862316e+308                   nan                  -nan   1.797693134862316e+308 
5.20000000e+09   1.797693134862316e+308                   nan                  -nan   1.797693134862316e+308 
5.30000000e+09   1.797693134862316e+308                   nan                  -nan   1.797693134862316e+308 
5.40000000e+09   1.797693134862316e+308                   nan                  -nan   1.797693134862316e+308 
5.50000000e+09   1.797693134862316e+308                   nan                  -nan   1.797693134862316e+308 
5.60000000e+09   1.797693134862316e+308                   nan                  -nan   1.797693134862316e+308 
5.70000000e+09   1.797693134862316e+308                   nan                  -nan   1.797693134862316e+308 
5.80000000e+09   1.797693134862316e+308                   nan                  -nan   1.797693134862316e+308 
5.90000000e+09   1.797693134862316e+308                   nan                  -nan   1.797693134862316e+308 
6.00000000e+09   1.797693134862316e+308                   nan                  -nan   1.797693134862316e+308 
6.10000000e+09   1.797693134862316e+308                   nan                  -nan   1.797693134862316e+308 
6.20000000e+09   1.797693134862316e+308                   nan                  -nan   1.797693134862316e+308 
6.30000000e+09   1.797693134862316e+308                   nan                  -nan   1.797693134862316e+308 
6.40000000e+09   1.797693134862316e+308                   nan                  -nan   1.797693134862316e+308 
6.50000000e+09   1.797693134862316e+308                   nan                  -nan   1.797693134862316e+308 
6.60000000e+09   1.797693134862316e+308                   nan                  -nan   1.797693134862316e+308 
6.70000000e+09   1.797693134862316e+308                   nan                  -nan   1.797693134862316e+308 
6.80000000e+09   1.797693134862316e+308                   nan                  -nan   1.797693134862316e+308 
6.90000000e+09   1.797693134862316e+308                   nan                  -nan   1.797693134862316e+308 
7.00000000e+09   1.797693134862316e+308                   nan                  -nan   1.797693134862316e+308 
7.10000000e+09   1.797693134862316e+308                   nan                  -nan   1.797693134862316e+308 
7.20000000e+09   1.797693134862316e+308                   nan                  -nan   1.797693134862316e+308 
7.30000000e+09   1.797693134862316e+308                   nan                  -nan   1.797693134862316e+308 
7.40000000e+09   1.797693134862316e+308                   nan                  -nan   1.797693134862316e+308 
7.50000000e+09   1.797693134862316e+308                   nan                  -nan   1.797693134862316e+308 
7.60000000e+09   1.797693134862316e+308                   nan                  -nan   1.797693134862316e+308 
7.70000000e+09   1.797693134862316e+308                   nan                  -nan   1.797693134862316e+308 
7.80000000e+09   1.797693134862316e+308                   nan                  -nan   1.797693134862316e+308 
7.90000000e+09   1.797693134862316e+308                   nan                  -nan   1.797693134862316e+308 
8.00000000e+09   1.797693134862316e+308                   nan                  -nan   1.797693134862316e+308 
8.10000000e+09   1.797693134862316e+308                   nan                  -nan   1.797693134862316e+308 
8.20000000e+09   1.797693134862316e+308                   nan                  -nan   1.797693134862316e+308 
8.30000000e+09   1.797693134862316e+308                   nan                  -nan   1.797693134862316e+308 
8.40000000e+09   1.797693134862316e+308                   nan                  -nan   1.797693134862316e+308 
8.50000000e+09   1.797693134862316e+308                   nan                  -nan   1.797693134862316e+308 
8.60000000e+09   1.797693134862316e+308                   nan                  -nan   1.797693134862316e+308 
8.70000000e+09   1.797693134862316e+308                   nan                  -nan   1.797693134862316e+308 
8.80000000e+09   1.797693134862316e+308                   nan                  -nan   1.797693134862316e+308 
8.90000000e+09   1.797693134862316e+308                   nan                  -nan   1.797693134862316e+308 
9.00000000e+09   1.797693134862316e+308                   nan                  -nan   1.797693134862316e+308 
9.10000000e+09   1.797693134862316e+308                   nan                  -nan   1.797693134862316e+308 
9.20000000e+09   1.797693134862316e+308                   nan                  -nan   1.797693134862316e+308 
9.30000000e+09   1.797693134862316e+308                   nan                  -nan   1.797693134862316e+308 
9.40000000e+09   1.797693134862316e+308                   nan                  -nan   1.797693134862316e+308 
9.50000000e+09   1.797693134862316e+308                   nan                  -nan   1.797693134862316e+308 
9.60000000e+09   1.797693134862316e+308                   nan                  -nan   1.797693134862316e+308 
9.70000000e+09   1.797693134862316e+308                   nan                  -nan   1.797693134862316e+308 
9.80000000e+09   1.797693134862316e+308                   nan                  -nan   1.797693134862316e+308 
9.90000000e+09   1.797693134862316e+308                   nan                  -nan   1.797693134862316e+308 
1.00000000e+10   1.797693134862316e+308                   nan                  -nan   1.797693134862316e+308 

