! Touchstone Ver. 1.0 
! Number of ports is 2
# Hz	S	RI	R	50.000000	300.000000	
! SCATTERING PARAMETERS  :
4.00000000e+09     -0.5965150490537177    0.6332355062274189      1.104136967850684     1.841446541750089   -2.113466609494777e-07  5.31087055733171e-07     0.3767977385298408   -0.8892303750532298  
4.10000000e+09     -0.5621527721217193    0.6506717838435734      1.416065011209242     1.981095369038507   -1.144058000383945e-07  4.687640971839251e-07     0.3557387365172494   -0.8995167447433058  
4.20000000e+09     -0.5246030991971883    0.6668663450393453      1.793368214315252     2.108221099226085   -1.808254425363974e-09  3.61079835861892e-07     0.3346963829557082   -0.9093003372123891  
4.30000000e+09     -0.4836846593551528    0.6813195416697305      2.246813722201004     2.211133949259667   1.242033931220594e-07  1.940148093893635e-07     0.3136638096809578   -0.9186069335955301  
4.40000000e+09     -0.4391932730867014    0.6934163146626947      2.788774737730788     2.274008371637078   2.539799131690824e-07  -5.200392731445843e-08     0.2926277990760007   -0.9274650076144223  
4.50000000e+09      -0.391037577847194    0.7025453512936648      3.430142494191563      2.27477283116041   3.761680565413804e-07  -3.998569764512533e-07     0.2715681300652877   -0.9358983154319104  
4.60000000e+09     -0.3391691017938421     0.707808969344385       4.18223054695459      2.18354056254261   4.683014718328144e-07  -8.749103068568019e-07     0.2504556363153513   -0.9439317799383435  
4.70000000e+09      -0.283785799930107    0.7082557704749515      5.051322952103614     1.960908066546849   4.944038364951068e-07  -1.506761177552394e-06     0.2292514891198697    -0.951582402666578  
4.80000000e+09     -0.2252687965149817    0.7028133514213133      6.036759084507294     1.556030951310489   4.011274856614376e-07  -2.3259110273031e-06      0.207903195291677   -0.9588638696949799  
4.90000000e+09     -0.1643411024395006    0.6903809545711121      7.124908676963509    0.9049224023745587   1.156933682828205e-07  -3.355844395538806e-06     0.1863465845757471   -0.9657766155583181  
5.00000000e+09      -0.101931606392042    0.6697617796399664       8.28236487587653  -0.06862409435404564   -4.688206231687058e-07  -4.605964186529024e-06     0.1644974624559084   -0.9723068325495156  
5.10000000e+09    -0.03962032311227164    0.6400212095569817      9.444313314134003    -1.449558001966335   -1.489703586074124e-06  -6.059067074130139e-06     0.1422580565982648   -0.9784129280854543  
5.20000000e+09     0.02059868946867009     0.600288267939495      10.50343373658868    -3.325506317578312   -3.118439249722521e-06  -7.642833985366431e-06     0.1195116000531406   -0.9840206041408184  
5.30000000e+09     0.07650404061814758    0.5503877450695789      11.29843706475998    -5.767615072973006   -5.552432873002775e-06  -9.214055339722432e-06    0.09613236859792262   -0.9889961153199276  
5.40000000e+09      0.1252994549926796    0.4908733662939976      11.60320461004958    -8.807354800139004   -8.977610101687917e-06  -1.051294963049238e-05    0.07199659360729366   -0.9931332971373298  
5.50000000e+09      0.1643901040378198    0.4228782683446977      11.13061975477164    -12.39412749469099   -1.353822311305519e-05  -1.113454940958238e-05    0.04701569153864413   -0.9961285240040169  
5.60000000e+09      0.1912022951314342    0.3487876670023093      9.556138991850238    -16.34481428371966   -1.923253044524479e-05  -1.052828886874799e-05    0.02119089200427091   -0.9975658000816263  
5.70000000e+09      0.2041231996983772    0.2716888330920852      6.574358270607287    -20.30244771641767   -2.580641926781923e-05  -8.013983766359891e-06   -0.005311068707669479   -0.9969203180873386  
5.80000000e+09      0.2023682964474756    0.1956384305504373      2.012261517030202    -23.70278050443707   -3.262392357529077e-05  -2.932777015117233e-06   -0.03205076453238321   -0.9936412749624743  
5.90000000e+09      0.1867629364837727    0.1244807384104346     -4.048589781703742    -25.83560559724186   -3.862957118691991e-05  5.166180805860661e-06   -0.05825618361973406   -0.9872832064965082  
6.00000000e+09      0.1593506813544769   0.06184705529510942      -11.1307451042539    -25.98500074364001   -4.243241247332962e-05  1.617318232954499e-05    -0.0828330639875377   -0.9777625623739158  
6.10000000e+09      0.1234759300286845   0.01028292724559463     -18.37663288376815    -23.69412294476659   -4.267817220530359e-05  2.923171985793879e-05    -0.1046082434108294   -0.9655481792091095  
6.20000000e+09     0.08278879905849235  -0.02911279108378281     -24.72094627704066    -18.98963291463517   -3.851020425015981e-05  4.279166231348323e-05    -0.1226742597459675   -0.9517321983296914  
6.30000000e+09      0.0410683107972012  -0.05673794552823175     -29.25888988611619    -12.44571097810426   -2.999650944670887e-05  5.504202130207023e-05    -0.1367631187540519   -0.9377432135939869  
6.40000000e+09    0.0008209662585876291  -0.07393863788280754     -31.50149027468741    -4.980121110602975   -1.803914945413385e-05  6.446240534123152e-05    -0.1473241856315742   -0.9249382456632289  
6.50000000e+09    -0.03611485436376449  -0.08251173877457048     -31.47579095347729     2.473953300249359   -4.005057429953184e-06  7.028518296337664e-05    -0.1553017810998751   -0.9142049016173326  
6.60000000e+09    -0.06873250725094861  -0.08408620947296271     -29.56761768264285     9.221134812779647   1.075724146289002e-05  7.239597386028923e-05    -0.1617712697946449   -0.9058760847759307  
6.70000000e+09    -0.09648681231693555  -0.08013443940796749     -26.29922071309033     14.88091058236095   2.522810398597573e-05  7.120853668844157e-05    -0.1676567042737501   -0.8998385490523739  
6.80000000e+09     -0.1191851514512844  -0.07176683182151021     -22.16435431397865     19.34101619652563   3.881559888175974e-05  6.727231506581507e-05    -0.1736099215174067   -0.8957317415190339  
6.90000000e+09     -0.1364646936635791  -0.05994465010911614       -17.545495279337     22.64777649927309   5.12212300570119e-05  6.109874761105189e-05    -0.1800296302978076    -0.893125197367164  
7.00000000e+09     -0.1482584622809444  -0.04558442037449924     -12.68740364108387     24.91364086560653   6.237266142498688e-05  5.307502484507792e-05     -0.187116203260961   -0.8916161792307981  
7.10000000e+09      -0.154425589104448  -0.02942636629850033     -7.747811151983188     26.25415996031753   7.226035309305983e-05  4.340494366868679e-05    -0.1949636756384209   -0.8908624060594188  
7.20000000e+09     -0.1546378167657424   -0.0122605655528932     -2.795172757405186     26.76116294035704   8.082674305507419e-05  3.210816965772028e-05    -0.2035958028156305   -0.8905933541793002  
7.30000000e+09     -0.1486514123377337  0.005007822187605156      2.120464897189648     26.46382971173919   8.791362771057037e-05  1.912743795070225e-05    -0.2130250576487466   -0.8905790226156106  
7.40000000e+09      -0.136264998737511   0.02140751602013287      6.959803974454592     25.34683189907141   9.320541543582204e-05  4.31582578166489e-06    -0.2232546376023758   -0.8906175228967494  
7.50000000e+09     -0.1171047824264027   0.03563387343669084      11.63869448141972       23.331799767891   9.602329008462807e-05  -1.237560048093636e-05    -0.2342953926691191   -0.8904878472497381  
7.60000000e+09    -0.09112300207663805   0.04604019915794061      15.98963260443908     20.32005552862095   9.548199650629446e-05  -3.077258165284072e-05    -0.2461264812833686   -0.8899308241795105  
7.70000000e+09    -0.05889285249046705   0.05046893989083778      19.71618974606444     16.23758228447607   9.046785382496338e-05  -5.020690088355708e-05    -0.2586609921572408   -0.8886283338402349  
7.80000000e+09    -0.02173662793062536   0.04658252000835582      22.40145973689069     11.14179641016757   7.993673818703754e-05  -6.920847224810525e-05    -0.2716647686376465   -0.8862371065087786  
7.90000000e+09     0.01766135602480979   0.03231852252273974      23.57470236733109     5.347117718513002   6.348986130892569e-05  -8.545821067472564e-05    -0.2846955901681978   -0.8824870610606775  
8.00000000e+09     0.05515170854209295  0.007038174565386441      22.91436423395899   -0.5270249354657185   4.222635391922404e-05  -9.627286465347881e-05    -0.2971446632830932   -0.8773433138895868  
8.10000000e+09     0.08683921552219021  -0.02765529350696553       20.4798574110922    -5.686066795024295   1.876216621061378e-05  -9.970073448336051e-05    -0.3084181221983361   -0.8711256897093879  
8.20000000e+09      0.1100792729611842  -0.06828344062246736      16.78983657913868    -9.467324204333428   -3.456373257707974e-06  -9.56057442110988e-05    -0.3181927667236363   -0.8644528038584214  
8.30000000e+09      0.1245863335021742   -0.1109326488519739      12.59913029789481    -11.61594648909849   -2.160107056968268e-05  -8.56998676233116e-05    -0.3265405625537494   -0.8579702861166334  
8.40000000e+09      0.1319703844173019   -0.1527509835787919      8.594554678918698    -12.30311307217004   -3.441614119028307e-05  -7.263246597876543e-05    -0.3338254162224425   -0.8521209557990299  
8.50000000e+09      0.1344104281509575   -0.1924807401823764      5.188883403340165    -11.93172603917268   -4.209334204001097e-05  -5.879353947634124e-05    -0.3404855724242739   -0.8470598866323559  
8.60000000e+09      0.1335918342214513   -0.2300295483720312      2.524434181068924    -10.92703699303002   -4.563720726069534e-05  -4.578332445220143e-05    -0.3468756594258164   -0.8427367561729268  
8.70000000e+09      0.1305679340296497   -0.2659236607886672     0.5673979600926075    -9.625529387437203   -4.622662385933698e-05  -3.438331573871744e-05    -0.3532243786679641   -0.8390032623354181  
8.80000000e+09      0.1257323129358847   -0.3007860652269889    -0.7935746003679891     -8.24691903381115   -4.487516621173514e-05  -2.484039958974133e-05     -0.359647023907124   -0.8356965491022507  
8.90000000e+09       0.119172782516004   -0.3349640546027978     -1.688281427316042    -6.924141846850845   -4.237979553982813e-05  -1.708541104681846e-05    -0.3661889132410377   -0.8326767773611692  
9.00000000e+09      0.1107600235117818   -0.3686284602258877     -2.234634289151409    -5.721126349701109   -3.927351905936804e-05  -1.090857899182713e-05    -0.3728498901059999   -0.8298362618668349  
9.10000000e+09      0.1003320071763807   -0.4017641293504395     -2.528796953245025    -4.663355571172471   -3.591096272402059e-05  -6.066644880913619e-06    -0.3796109764698093   -0.8270975635529504  
9.20000000e+09     0.08776639524310513   -0.4342287620857714     -2.645281870949585    -3.754651506132829   -3.252750605344312e-05  -2.325609725002444e-06    -0.3864465042412428   -0.8244063026111619  
9.30000000e+09     0.07300991411106114   -0.4657793042081769     -2.640204172042987    -2.986398533677653   -2.925334797680585e-05  5.162583764123805e-07    -0.3933291607080485   -0.8217268136177281  
9.40000000e+09     0.05608522887186204   -0.4961665903412096     -2.554731462083101    -2.345250588011447   -2.616730023018082e-05  2.642257979428893e-06    -0.4002337103100072   -0.8190365115894607  
9.50000000e+09     0.03711323801225383   -0.5251162717515492      -2.41881220014296    -1.815624594083368   -2.331261202425522e-05  4.199480035305067e-06    -0.4071381476818025   -0.8163207951789091  
9.60000000e+09     0.01630216047374106   -0.5523708754324744     -2.253876266502529    -1.381827287787537   -2.071209274080896e-05  5.305857008653907e-06    -0.4140238280728457   -0.8135706577979445  
9.70000000e+09    -0.006135883116008634   -0.5777639986181258     -2.074629492902723    -1.029578731064792   -1.835266805189436e-05  6.061291797860852e-06    -0.4208751686737895   -0.8107821269038712  
9.80000000e+09    -0.02993521515628766    -0.601129489193113     -1.891699615604388   -0.7457394787689585   -1.623925742101331e-05  6.540701673583412e-06    -0.4276797328778817   -0.8079532977668306  
9.90000000e+09    -0.05484015419481302   -0.6223813558948674     -1.712093826946985   -0.5188175544925812   -1.435548758160869e-05  6.80711337907328e-06    -0.4344272117956736   -0.8050840371492893  
1.00000000e+10    -0.08059697271822867   -0.6414815169736404     -1.540334859373734   -0.3389041929062591   -1.268025628255472e-05  6.91035622989695e-06    -0.4411092727473305   -0.8021754509070494  
! NOISE PARAMETERS  :
4.00000000e+09      7.015927975184584    0.8266351120235821    -134.0467869309736      2.005080378597939 
4.10000000e+09      6.615515495697139     0.809948065871647    -131.7904601006662      1.797767275723502 
4.20000000e+09      6.237769080342394    0.7912742475927689    -129.4193655278252      1.613804890244382 
4.30000000e+09      5.883032536776478    0.7704710077490678    -126.9322134124613      1.450906796565046 
4.40000000e+09      5.550665333145172    0.7473489858535282    -124.3273423325595      1.306384241073961 
4.50000000e+09      5.240534832521108    0.7218212419905411    -121.6005623190673      1.178758607607432 
4.60000000e+09      4.951788214536943    0.6937444250523082    -118.7553955559877      1.065698932423483 
4.70000000e+09       4.68355931958102    0.6631332101597091    -115.7962803401348     0.9656929612957962 
4.80000000e+09       4.43519246051082    0.6299855632957581    -112.7281286746293     0.8772515078768646 
4.90000000e+09       4.20613871689848    0.5944121095718258    -109.5619624863006     0.7991392181410073 
5.00000000e+09      3.995560552972553    0.5565503409536536    -106.3045164223228     0.7301454599337945 
5.10000000e+09      3.802313583945711    0.5167520779306281    -102.9667905129914     0.6693007430745943 
5.20000000e+09      3.626234237773849    0.4753091112048842    -99.57554916962067     0.6155818203542774 
5.30000000e+09      3.466219871901031    0.4326172946897696    -96.12892678369673     0.5682664740339829 
5.40000000e+09      3.321201763922975    0.3893295838696192    -92.64931150887472     0.5266270623752414 
5.50000000e+09      3.190445609786149    0.3458084911368652    -89.13234314522047     0.4899573281351945 
5.60000000e+09      3.073836336379008    0.3026395241581695      -85.595246967205     0.4577771152564385 
5.70000000e+09      2.969831055038194    0.2603021275539458     -81.9863621419675      0.429564734500688 
5.80000000e+09      2.878088528043834    0.2193980318003274    -78.29311662247733     0.4048998512958001 
5.90000000e+09      2.797553165005003    0.1802839825614519    -74.38683704553543     0.3834015168580942 
6.00000000e+09      2.727950536519516    0.1432964770845073    -70.08565774180894     0.3647473341553062 
6.10000000e+09      2.668169755720736    0.1088027832498442    -64.93632151046783      0.348631565449071 
6.20000000e+09      2.618652629329051   0.07718063985502989     -57.9185770247102     0.3349392697700507 
6.30000000e+09      2.577563650293077   0.04925443926122901    -45.80926133797016     0.3233801858246398 
6.40000000e+09      2.544946710387805   0.02777028712243754     -17.2956348571199     0.3137320949135803 
6.50000000e+09       2.52027733435412    0.0241998743594115     41.13748257797587     0.3059471093405959 
6.60000000e+09      2.503189014917043   0.03876437970444069     75.25831522110916     0.2998832372610561 
6.70000000e+09      2.493009220993708   0.05672496024124057     88.10531252732227     0.2954491907226914 
6.80000000e+09      2.489703479172485    0.0740567576887578     94.27803047578041     0.2925738559095385 
6.90000000e+09       2.49269392379088   0.09011326540496695     97.67655384827266     0.2912158480010085 
7.00000000e+09      2.502032840611709    0.1048815775740667     99.64424517837115     0.2913487572190773 
7.10000000e+09      2.517475537247472    0.1185419536524935     100.7466774943053     0.2929115328609483 
7.20000000e+09       2.53867094933384    0.1313131038691163     101.2153401809604     0.2959107634438553 
7.30000000e+09      2.566224183925084    0.1433645603053568     101.2084257125343     0.3004497557092547 
7.40000000e+09      2.599702637040436    0.1550633169601469     100.8609500073865     0.3064685678024007 
7.50000000e+09      2.639740348901378     0.166610790567716     100.2434503485753     0.3141081188370878 
7.60000000e+09      2.686276408325007    0.1782089720868781     99.42878218043771     0.3234073764847312 
7.70000000e+09      2.740235338566237    0.1901028228525774     98.49360333803868     0.3345361142745086 
7.80000000e+09      2.801764295854882     0.202393909249084     97.48265846849951     0.3476107560785643 
7.90000000e+09      2.871821017099433    0.2152964345695046      96.4484311229743     0.3628872379593763 
8.00000000e+09      2.951091640747162    0.2288765596053295      95.4558503264894     0.3805330540189436 
8.10000000e+09      3.040801112352493    0.2431687116865378     94.50179421142974     0.4010080960754236 
8.20000000e+09      3.141581533785746    0.2582503827334273     93.63647891345857     0.4245861673271148 
8.30000000e+09      3.254947947142373    0.2741691587250458       92.874756417695     0.4518365933950214 
8.40000000e+09      3.382012369752053    0.2909413230397733     92.22749661147861     0.4833642464459394 
8.50000000e+09       3.52406457568803    0.3085282779441498     91.70217544317687     0.5198997300176367 
8.60000000e+09      3.681973235402864    0.3269446957700032     91.31559239154299      0.562204805009587 
8.70000000e+09      3.857121904188543    0.3461864652657549     91.07014638499108     0.6113735071848775 
8.80000000e+09      4.051312986491503    0.3662850844020425     90.96414008929268     0.6688871815614786 
8.90000000e+09      4.264694982435424    0.3871666705587575     91.00900983442119     0.7359934172852906 
9.00000000e+09      4.498264589526418    0.4087787340832088     91.21102645065221     0.8144466188343169 
9.10000000e+09      4.752764174844475     0.431042096185739     91.57142561915765     0.9063250616060673 
9.20000000e+09       5.02851987564114    0.4538686703578677      92.0833356967818      1.014125099364627 
9.30000000e+09      5.325878100168325     0.477111534686413      92.7497616489557      1.140640054821634 
9.40000000e+09      5.644321993898175    0.5006252736413074     93.56335981420965      1.289049416514272 
9.50000000e+09      5.983353548280243    0.5242290426640235     94.51439656337244      1.463073549401791 
9.60000000e+09      6.342426611468529     0.547716688177503     95.58969202109878       1.66704066537011 
9.70000000e+09      6.720663972085127    0.5709437659610758     96.77342700909345      1.906120852525401 
9.80000000e+09       7.11686970453723    0.5937024726576755     98.05046403948468       2.18584327637182 
9.90000000e+09      7.529744455659961    0.6158427824743531     99.40494478006501       2.51267964484224 
1.00000000e+10      7.957840918516387    0.6372390258876584     100.8211900411603      2.893968936510079 

