! Touchstone Ver. 1.0 
! Number of ports is 2
# Hz	S	RI	R	50.000000
! SCATTERING PARAMETERS  :
1.00000000e+09      0.9884748991918917  -0.03704492732008812     -2.113439039505298    0.1774151325304656   -1.291991783347512e-05  0.0003458451639492668      0.990713786090841  -0.01638526839706929  
1.01000000e+09      0.9884425554412264  -0.03741403425046674     -2.113224945307902    0.1791770990253693   -1.317915768804598e-05  0.000349310474663243     0.9907066184061046   -0.0165492052355505  
1.02000000e+09      0.9884098994372132   -0.0377829144290261     -2.113008790403968     0.180938293528592   -1.344102757819719e-05  0.0003527759876353576     0.9906993831797135  -0.01671294490497587  
1.03000000e+09      0.9883769208113782  -0.03815184351580887     -2.112790517937382    0.1826992991685035   -1.370542993783733e-05  0.0003562417071855325     0.9906920757777239   -0.0168767641860867  
1.04000000e+09      0.9883436231222085  -0.03852072906865203     -2.112570148082201    0.1844599168391759   -1.397239671300928e-05  0.0003597076345039603     0.9906846977705954  -0.01704057080993987  
1.05000000e+09      0.9883100064473624   -0.0388895706711594     -2.112347681764814    0.1862201429923185   -1.424192746663186e-05  0.0003631737715614831     0.9906772491785167  -0.01720436476596312  
1.06000000e+09      0.9882760708652355  -0.03925836790711372     -2.112123119920367    0.1879799740792087   -1.451402175756014e-05  0.0003666401203276438     0.9906697300215559  -0.01736814604051279  
1.07000000e+09      0.9882418164549498  -0.03962712036047963     -2.111896463493717    0.1897394065509733   -1.478867914059444e-05  0.0003701066827708477     0.9906621403203617  -0.01753191461703267  
1.08000000e+09      0.9882072395749846  -0.03999591961444145     -2.111667692860861    0.1914986322264597   -1.506586453836007e-05  0.000373573461751974     0.9906544784366065  -0.01769576273188489  
1.09000000e+09       0.988172351470058  -0.04036448925620292     -2.111436870711117    0.1932570614528287   -1.534568138188756e-05  0.0003770404565543991      0.990646749366868  -0.01785941359595793  
1.10000000e+09      0.9881371410573547  -0.04073310486740168     -2.111203936285274    0.1950152767851131   -1.562802532947624e-05  0.0003805076718243485     0.9906389481546898   -0.0180231439518243  
1.11000000e+09      0.9881016121402975  -0.04110167403368902     -2.110968911138023    0.1967730793070205   -1.59129305478469e-05  0.0003839751086306334     0.9906310764818458  -0.01818686151689139  
1.12000000e+09      0.9880657648016601  -0.04147019633995416     -2.110731796256448    0.1985304654707312   -1.620039657156661e-05  0.0003874427689347166     0.9906231343689078  -0.01835056626191548  
1.13000000e+09      0.9880295991249484  -0.04183867137127049     -2.110492592634537    0.2002874317289127   -1.649042293116338e-05  0.0003909106546963588     0.9906151218368608  -0.01851425815546636  
1.14000000e+09      0.9879931151943894  -0.04220709871290685     -2.110251301276751    0.2020439745352257   -1.678300915314798e-05  0.0003943787678742627     0.9906070389073407  -0.01867793716402186  
1.15000000e+09      0.9879563130949447   -0.0425754779503212     -2.110007923194518    0.2038000903440844   -1.70781547600014e-05  0.0003978471104254189     0.9905988856020606  -0.01884160325205973  
1.16000000e+09      0.9879191929122988  -0.04294380866916624      -2.10976245940826     0.205555775610989   -1.737585927019024e-05  0.0004013156843054678     0.9905906619432907  -0.01900525638215098  
1.17000000e+09      0.9878817547328624  -0.04331209045529288      -2.10951491094737    0.2073110267926366   -1.767612219817092e-05  0.0004047844914686909     0.9905823679535137  -0.01916889651503802  
1.18000000e+09      0.9878439945803098  -0.04368041485280422     -2.109265256388047    0.2090660354208585   -1.79789052115787e-05  0.0004082535349340661     0.9905740018418409  -0.01933261585634113  
1.19000000e+09      0.9878059206352543  -0.04404859752754479     -2.109013541509428    0.2108204077762015   -1.828428318088597e-05  0.0004117228145382202     0.9905655672404814  -0.01949622986913081  
1.20000000e+09      0.9877675330888023   -0.0444166380788488     -2.108759767929173    0.2125741404116841   -1.859225657329628e-05   0.00041519233217654     0.9905570642177364  -0.01965973851196122  
1.21000000e+09      0.9877288196348577  -0.04478481194165096     -2.108503868200757    0.2143278148261435   -1.890270942925612e-05  0.0004186620931054028     0.9905484872683235  -0.01982341847327385  
1.22000000e+09      0.9876897969589769  -0.04515275091387038     -2.108245935117938    0.2160806474978295   -1.921579583053634e-05  0.0004221320948240701     0.9905398438173491  -0.01998690072872297  
1.23000000e+09      0.9876504526540277  -0.04552073041774503     -2.107985900685159    0.2178332198348634   -1.953139884470679e-05  0.0004256023426405973     0.9905311283141225  -0.02015046196099995  
1.24000000e+09      0.9876107909774507  -0.04588865809549222     -2.107723789015027    0.2195853333239783   -1.984955676591026e-05   0.00042907283737766     0.9905223426386185  -0.02031400987625202  
1.25000000e+09      0.9875708077189123  -0.04625662546182343     -2.107459577427828    0.2213371792877518   -2.017022898229123e-05  0.0004325435821733646     0.9905134848966108  -0.02047763666305411  
1.26000000e+09      0.9875305158789383   -0.0466243563227243     -2.107193338354634     0.223088169638188   -2.049353525558872e-05  0.0004360145753800599     0.9905045608686239  -0.02064106554927055  
1.27000000e+09      0.9874899026435628  -0.04699212604780615     -2.106925001582133    0.2248388854083614   -2.081935477724392e-05  0.0004394858225250053     0.9904955648222677  -0.02080457320076763  
1.28000000e+09       0.987448972409682  -0.04735984229795025     -2.106654592005046    0.2265891282206037   -2.114772711228482e-05  0.0004429573243491125     0.9904864986994062  -0.02096806732279624  
1.29000000e+09      0.9874077252723769  -0.04772750466149515     -2.106382110754832       0.2283388945531   -2.147865172742749e-05  0.0004464290827885871     0.9904773625254999  -0.02113154785942914  
1.30000000e+09      0.9873661613274447   -0.0480951127269894     -2.106107558968182    0.2300881808859747   -2.181212808542179e-05  0.0004499010997773835     0.9904681563253397   -0.0212950147536864  
1.31000000e+09      0.9873242806714004  -0.04846266608320593     -2.105830937789942    0.2318369837017161   -2.214815564507498e-05  0.000453373377247803     0.9904588801222671  -0.02145846794754712  
1.32000000e+09      0.9872820834014784  -0.04883016431913495     -2.105552248374814    0.2335852994854353   -2.248673386127449e-05  0.0004568459171308499     0.9904495339425157  -0.02162190738209643  
1.33000000e+09      0.9872395696156283  -0.04919760702399754     -2.105271491884718    0.2353331247246433   -2.28278621849676e-05  0.0004603187213556619     0.9904401178091686  -0.02178533299741692  
1.34000000e+09      0.9871967394125143  -0.04956499378722597     -2.104988669491998    0.2370804559096659   -2.317154006320165e-05  0.0004637917918501991     0.9904306317511944  -0.02194874473284975  
1.35000000e+09      0.9871535928915183   -0.0499323241984907     -2.104703782373126    0.2388272895329812   -2.351776693906821e-05  0.0004672651305398534     0.9904210757902886   -0.0221121425267076  
1.36000000e+09      0.9871101301527359  -0.05029959784767551     -2.104416831714308     0.240573622089915   -2.386654225176351e-05  0.0004707387393486606     0.9904114499536536  -0.02227552631662445  
1.37000000e+09      0.9870663512969743  -0.05066681432491298     -2.104127818713888    0.2423194500790733   -2.421786543660627e-05  0.000474212620199853     0.9904017542672996  -0.02243889603940425  
1.38000000e+09      0.9870222564257579  -0.05103397322054901      -2.10383674457263    0.2440647700011206   -2.457173592497016e-05  0.0004776867750136668     0.9903919887563848  -0.02260225163109329  
1.39000000e+09       0.986977845641321  -0.05140107412516274     -2.103543610502153    0.2458095783599183   -2.492815314435759e-05  0.0004811612057092224     0.9903821534483985  -0.02276559302706574  
1.40000000e+09      0.9869331190466111  -0.05176811662958221     -2.103248417723367    0.2475538716624193   -2.528711651838741e-05  0.0004846359142041768     0.9903722483684546  -0.02292892016193225  
1.41000000e+09      0.9868880767452859  -0.05213510032484992     -2.102951167462491    0.2492976464181422   -2.564862546677697e-05  0.0004881109024138008     0.9903622735442961  -0.02309223296971475  
1.42000000e+09      0.9868427188417142  -0.05250202480226361     -2.102651860956384    0.2510408991399875   -2.601267940538361e-05  0.0004915861722521913     0.9903522290017097  -0.02325553138373043  
1.43000000e+09      0.9867970454409741  -0.05286888965335246     -2.102350499449439    0.2527836263438317   -2.637927774619053e-05  0.0004950617256315572     0.9903421147679401  -0.02341881533672026  
1.44000000e+09       0.986751056648856  -0.05323569446987515     -2.102047084190586    0.2545258245481902   -2.674841989728548e-05  0.0004985375644614898       0.99033193086953  -0.02358208476082409  
1.45000000e+09      0.9867047525718553  -0.05360243884385407     -2.101741616443467    0.2562674902756544   -2.71201052629532e-05  0.0005020136906513649     0.9903216773342782  -0.02374533958762283  
1.46000000e+09      0.9866581333171739  -0.05396912236753205     -2.101434097473043    0.2580086200510979   -2.749433324356789e-05  0.0005054901061071561     0.9903113541890864   -0.0239085797481466  
1.47000000e+09      0.9866111989927256  -0.05433574463341605     -2.101124528558663    0.2597492104035232   -2.787110323571169e-05  0.0005089668127345506      0.990300961462742  -0.02407180517292992  
1.48000000e+09      0.9865639497071286  -0.05470230523424857     -2.100812910982794    0.2614892578645744   -2.825041463208163e-05  0.0005124438124362347     0.9902904991819365  -0.02423501579195736  
1.49000000e+09      0.9865163855697066  -0.05506880376301804     -2.100499246036607    0.2632287589693141   -2.863226682154621e-05  0.0005159211071132197     0.9902799673745777  -0.02439821153475715  
1.50000000e+09      0.9864685066904866  -0.05543523981297067     -2.100183535021857    0.2649677102565665   -2.901665918916945e-05  0.0005193986986653087     0.9902693660695566  -0.02456139233040947  
1.51000000e+09      0.9864203131802033   -0.0558016129776029     -2.099865779247141    0.2667061082684372   -2.940359111618151e-05  0.0005228765889901766     0.9902586952948975   -0.0247245581075218  
1.52000000e+09      0.9863718051502917  -0.05616792285065294     -2.099545980027222     0.268443949550228   -2.979306197998085e-05   0.00052635477998318     0.9902479550796699  -0.02488770879430579  
1.53000000e+09      0.9863229827128941  -0.05653416902612829      -2.09922413868763    0.2701812306511788   -3.018507115418084e-05  0.0005298332735385037     0.9902371454523182  -0.02505084431852765  
1.54000000e+09      0.9862738459808458  -0.05690035109828082     -2.098900256558279     0.271917948123556   -3.057961800855606e-05  0.0005333120715475459     0.9902262664405848   -0.0252139646075448  
1.55000000e+09      0.9862243950676952  -0.05726646866162979     -2.098574334982529    0.2736540985240232   -3.097670190914186e-05  0.0005367911759012099     0.9902153180756847   -0.0253770695884135  
1.56000000e+09      0.9861746300876859  -0.05763252131094063     -2.098246375304409     0.275389678411821   -3.137632221810586e-05  0.0005402705884866422      0.990204300384631  -0.02554015918771958  
1.57000000e+09      0.9861245511557597   -0.0579985086412499     -2.097916378880848    0.2771246843505876   -3.17784782938829e-05  0.0005437503111903415     0.9901932133972131   -0.0257032333317586  
1.58000000e+09      0.9860741583875571  -0.05836443024785414     -2.097584347076985    0.2788591129077204   -3.218316949113617e-05  0.0005472303458969713     0.9901820571440845  -0.02586629194650862  
1.59000000e+09      0.9860234518994226  -0.05873028572630938      -2.09725028126394    0.2805929606540771   -3.259039516073639e-05  0.0005507106944887643     0.9901708316552935  -0.02602933495760852  
1.60000000e+09      0.9859724318083942  -0.05909607467244024     -2.096914182819933    0.2823262241641927   -3.300015464977885e-05  0.0005541913588458004     0.9901595369593876  -0.02619236229033688  
1.61000000e+09      0.9859210982322055  -0.05946179668233573     -2.096576053131813    0.2840589000165174   -3.341244730160977e-05  0.000557672340846398     0.9901481730864486  -0.02635537386971329  
1.62000000e+09      0.9858694512892912  -0.05982745135235382     -2.096235893596552    0.2857909847937075   -3.382727245585331e-05  0.0005611536423675159     0.9901367400688484  -0.02651836962052823  
1.63000000e+09      0.9858174799108725  -0.06019322173837267     -2.095893643902832    0.2875228619612169   -3.424452477082078e-05  0.0005646352693390222     0.9901252329330812  -0.02668153385951912  
1.64000000e+09      0.9857652177804834  -0.06055855705954925     -2.095549490598316    0.2892533674707814   -3.466451761118367e-05  0.0005681172114656998      0.990113666714781  -0.02684431333384592  
1.65000000e+09      0.9857126201317548  -0.06092419072641908     -2.095203187514071    0.2909840452659742   -3.508683030416229e-05  0.0005715994869413943     0.9901020213802196  -0.02700744553170224  
1.66000000e+09      0.9856597322433192  -0.06128938857031041      -2.09485498514231    0.2927133449327362   -3.551188475779573e-05   0.00057508208111226     0.9900903171456663  -0.02717019282293562  
1.67000000e+09       0.985606520267557  -0.06165470049581634     -2.094504697562741    0.2944424232057959   -3.593936238715716e-05  0.0005785650083109664     0.9900785388582062  -0.02733310829250627  
1.68000000e+09      0.9855529956502338  -0.06201994266531524     -2.094152388666978    0.2961708899802281   -3.636936847807804e-05  0.0005820482662460689     0.9900666916087055  -0.02749600747643864  
1.69000000e+09      0.9854991585146327  -0.06238511467708564     -2.093798059907112    0.2978987418667045   -3.680190234412048e-05  0.000585531856780653     0.9900547754314779  -0.02765889029784253  
1.70000000e+09      0.9854450089847278  -0.06275021612968015     -2.093441712736938    0.2996259754790684   -3.723696329507017e-05  0.0005890157817740702     0.9900427903563719  -0.02782175667949574  
1.71000000e+09      0.9853905471851807  -0.06311524662194111     -2.093083348622185    0.3013525874359672   -3.767455063707558e-05  0.0005925000430847902     0.9900307364159747  -0.02798460654404713  
1.72000000e+09       0.985335761445294  -0.06348038910375257     -2.092722904000951    0.3030789604652059   -3.811455318315196e-05  0.0005959846470816104     0.9900186083659648   -0.0281476241822892  
1.73000000e+09       0.985280687279247  -0.06384509312225113     -2.092360575457224    0.3048039328784645   -3.855730170040189e-05  0.0005994695820807878     0.9900064220674091  -0.02831025641141771  
1.74000000e+09      0.9852252894256248  -0.06420990832939891     -2.091996169372611    0.3065286596216868   -3.900246401557616e-05  0.0006029548634713922      0.989994161723068  -0.02847305625857196  
1.75000000e+09      0.9851695798078817  -0.06457465097442965     -2.091629752280234     0.308252751225711   -3.945014990960409e-05  0.0006064404885915579     0.9899818326434103  -0.02863583927736465  
1.76000000e+09      0.9851135585541161  -0.06493932065760467     -2.091261325678325     0.309976204329418   -3.990035867020993e-05  0.0006099264592876117     0.9899694348589251  -0.02879860538950839  
1.77000000e+09      0.9850572257931061   -0.0653039169794976     -2.090890891082324    0.3116990155776139   -4.035308958160258e-05  0.000613412777406552     0.9899569684054692  -0.02896135451670313  
1.78000000e+09      0.9850005694536856   -0.0656686228162435     -2.090518382764812    0.3134215671848269   -4.080822755736117e-05  0.000616899449621052     0.9899444278563474  -0.02912427093208816  
1.79000000e+09      0.9849436262678912  -0.06603288794312713     -2.090144003975957    0.3151426991031832   -4.126611497494347e-05  0.0006203864632810961     0.9899318296185123   -0.0292868015018793  
1.80000000e+09      0.9848863474293188   -0.0663974450370412     -2.089767486549734    0.3168639500741395   -4.172629234715341e-05  0.0006238738396560984     0.9899191518333259   -0.0294496835484474  
1.81000000e+09      0.9848287822761261  -0.06676156067569361     -2.089389103194348    0.3185837750414361   -4.218922029002605e-05  0.0006273615609360326     0.9899064165499254  -0.02961217960315373  
1.82000000e+09      0.9847708814645166  -0.06712596743346301     -2.089008582821378    0.3203037120201598   -4.265443413688652e-05  0.0006308496488199592     0.9898936016630722  -0.02977502696521055  
1.83000000e+09      0.9847126948725962  -0.06748993199232713     -2.088626201088734    0.3220222167019247   -4.312239966929868e-05  0.0006343380850567306     0.9898807294664602  -0.02993748818870389  
1.84000000e+09      0.9846541852240125  -0.06785400362570405     -2.088241753434625    0.3237404413572874   -4.359276528678772e-05  0.0006378268866221405     0.9898677832566662  -0.03010011621525556  
1.85000000e+09      0.9845953651229562  -0.06821799871293779     -2.087855310133137    0.3254579974664449   -4.406564719758577e-05  0.0006413160502943539     0.9898547686440466  -0.03026272662514181  
1.86000000e+09      0.9845362347043228  -0.06858191685728947     -2.087466872767219    0.3271748817143614   -4.454104465339752e-05  0.000644805577900788     0.9898416856656826  -0.03042531933899586  
1.87000000e+09      0.9844767812975102   -0.0689459408197018     -2.087076372378111    0.3288914755158089   -4.501883671481514e-05  0.0006482954765907858     0.9898285286237966  -0.03058807860292346  
1.88000000e+09      0.9844170434573172  -0.06930952073182609       -2.0866840221811    0.3306066213840805   -4.549938318857116e-05  0.0006517857322056055     0.9898153147492232  -0.03075045136041135  
1.89000000e+09      0.9843569829021177  -0.06967320567004359      -2.08628961215404    0.3323214701971771   -4.598232275334913e-05  0.0006552763625446007     0.9898020268809573  -0.03091299050866964  
1.90000000e+09       0.984296599568024  -0.07003699519828561     -2.085893142804498    0.3340360183683403   -4.646765270507297e-05  0.0006587673695942584     0.9897886649610468  -0.03107569595891255  
1.91000000e+09      0.9842359195415258  -0.07040052267397262     -2.085494758660775    0.3357494936325207   -4.695561588798494e-05  0.0006622587442330724     0.9897752406435993  -0.03123819899503104  
1.92000000e+09      0.9841749300210366  -0.07076397083264854     -2.085094390070161    0.3374622772358716   -4.74460900507186e-05  0.0006657504937126705     0.9897617481695635  -0.03140068385674483  
1.93000000e+09      0.9841136443551404  -0.07112715620402066     -2.084692111394662    0.3391739817503558   -4.793919849086733e-05  0.0006692426141724508     0.9897481934913108  -0.03156296615661162  
1.94000000e+09      0.9840520363332332   -0.0714904445590933     -2.084287779169979    0.3408853722856319   -4.84346929374758e-05  0.0006727351187028088     0.9897345648432982  -0.03172541443270113  
1.95000000e+09      0.9839901192381597   -0.0718536524144175     -2.083881467406946    0.3425960613248634   -4.893269603367545e-05   0.00067622800349627     0.9897208681467941  -0.03188784429437624  
1.96000000e+09       0.983927879801453  -0.07221696241029064      -2.08347310393395    0.3443064294471028   -4.94330809822627e-05  0.0006797212762033564     0.9897070974335547  -0.03205043995987013  
1.97000000e+09      0.9838653583956503  -0.07257982505162131     -2.083062911879022    0.3460153218447001   -4.993622503623365e-05  0.0006832149210826899     0.9896932707542662  -0.03221264845399208  
1.98000000e+09      0.9838025013894034  -0.07294297205292087     -2.082650596883596    0.3477242704486126   -5.04416220555999e-05  0.0006867089634396262     0.9896793640640282  -0.03237520688362308  
