! Touchstone Ver. 1.0 
! Number of ports is 4
# Hz	S	RI	R	50.000000
! SCATTERING PARAMETERS  :
1.00000000e+09      0.9996261743520418   -0.0222112823118059   -7.00481207444902e-09  -4.909115776243233e-09   -0.0001273802384275952  4.261317603920433e-05   0.0001273802384275953  -4.26131760392043e-05  
 		   -7.004812106828719e-09  -4.909115807236906e-09     0.9996261743526009   -0.0222112823083869   0.0001273802386456939  -4.261317617087924e-05   -0.000127380238645694  4.261317617087919e-05  
 		   -0.000126693811412544  4.245839396031651e-05   0.0001266938118597441  -4.245839394153281e-05     0.1248992604401937    0.3305919354354818     0.8751007395598063   -0.3305919354354818  
 		   0.000126693811412544  -4.24583939603165e-05   -0.0001266938118597441  4.245839394153283e-05     0.8751007395598064   -0.3305919354354818     0.1248992604401935    0.3305919354354817  
1.01000000e+09      0.9996187343736127  -0.02243349351205044   -5.788279613615785e-09  -5.175042170206734e-09   -0.0001296703044042451  4.380399333629996e-05   0.000129670304404245  -4.380399333629997e-05  
 		   -5.788279647156234e-09  -5.175042197988839e-09     0.9996187343741433  -0.02243349350859833   0.0001296703046270224  -4.380399346801621e-05   -0.0001296703046270224  4.380399346801622e-05  
 		   -0.0001289720784541622  4.364230397476672e-05   0.0001289720789100176  -4.364230395623914e-05     0.1271001337906723    0.3330720057208282     0.8728998662093277   -0.3330720057208281  
 		   0.0001289720784541622  -4.36423039747667e-05   -0.0001289720789100176  4.364230395623916e-05     0.8728998662093277   -0.3330720057208281     0.1271001337906723    0.3330720057208282  
1.02000000e+09      0.9996112207828285  -0.02265569512915079   -4.56661902579996e-09  -5.450754119631278e-09   -0.0001319736998738185  4.501406683444138e-05   0.0001319736998738184  -4.50140668344414e-05  
 		   -4.56661906041074e-09  -5.450754138338412e-09     0.9996112207834049  -0.02265569512566446   0.0001319737000991002  -4.501406697292431e-05   -0.0001319737000991002  4.501406697292432e-05  
 		   -0.0001312636281584734  4.484533689993124e-05   0.0001312636286208349  -4.484533688839025e-05      0.129312076248515    0.3355315252960512     0.8706879237514853   -0.3355315252960512  
 		   0.0001312636281584734  -4.484533689993123e-05   -0.0001312636286208349  4.484533688839027e-05     0.8706879237514851   -0.3355315252960512     0.1293120762485147    0.3355315252960512  
1.03000000e+09      0.9996036335935748  -0.02287788718998817   -3.338946437283317e-09  -5.736501098148614e-09   -0.0001342902143975647  4.624343743483061e-05   0.0001342902143975647  -4.624343743483062e-05  
 		   -3.338946473154523e-09  -5.736501115428077e-09     0.9996036335941227  -0.02287788718646871   0.0001342902146275233  -4.624343757356065e-05   -0.0001342902146275232  4.624343757356066e-05  
 		   -0.0001335682516563872  4.606753343721099e-05   0.0001335682521274366  -4.606753342621518e-05     0.1315348470246082    0.3379704627952095     0.8684651529753917   -0.3379704627952094  
 		   0.0001335682516563871  -4.606753343721103e-05   -0.0001335682521274366  4.606753342621518e-05     0.8684651529753917   -0.3379704627952095     0.1315348470246081    0.3379704627952095  
1.04000000e+09      0.9995959728194748  -0.02310006971802465   -2.104404265379038e-09  -6.032535894515916e-09   -0.0001366196382355126  4.749214316378523e-05   0.0001366196382355127  -4.749214316378527e-05  
 		   -2.104404302531411e-09  -6.032535910016297e-09     0.9995959728199639  -0.02310006971447251   0.000136619638471164  -4.749214329989087e-05   -0.000136619638471164  4.749214329989091e-05  
 		   -0.0001358857407723866  4.730893143456845e-05   0.0001358857412531525  -4.73089314213035e-05     0.1337682061268359    0.3403887901207871     0.8662317938731643   -0.3403887901207872  
 		   0.0001358857407723866  -4.730893143456847e-05   -0.0001358857412531525  4.730893142130349e-05     0.8662317938731642    -0.340388790120787     0.1337682061268357    0.3403887901207872  
1.05000000e+09      0.9995882384741723  -0.02332224273346452   -8.621597115895812e-10  -6.339114590016905e-09   -0.0001389617623799941  4.876021922657538e-05   0.0001389617623799941  -4.876021922657538e-05  
 		   -8.621597503261161e-10  -6.339114616448535e-09     0.9995882384746859  -0.02332224272987837   0.0001389617626186832  -4.876021936804893e-05   -0.0001389617626186832  4.876021936804891e-05  
 		   -0.0001382158880577722  4.856956594000306e-05   0.0001382158885456243  -4.856956593246369e-05     0.1360119144082528    0.3427864824098474     0.8639880855917469   -0.3427864824098475  
 		   0.0001382158880577722  -4.856956594000304e-05   -0.0001382158885456243  4.856956593246368e-05     0.8639880855917471   -0.3427864824098475      0.136011914408253    0.3427864824098475  
1.06000000e+09      0.9995804305712862  -0.02354440625341051   3.885966472905004e-10  -6.656496527414161e-09   -0.0001413163785977697  5.004769803327256e-05   0.0001413163785977696  -5.004769803327254e-05  
 		   3.885966072118881e-10  -6.656496551738326e-09     0.9995804305719818  -0.02354440624978799   0.000141316378834549  -5.004769819459093e-05   -0.000141316378834549  5.004769819459089e-05  
 		   -0.0001405584868324746  4.984946922720694e-05   0.0001405584873225008  -4.984946923983407e-05     0.1382657336135198     0.345163518000179     0.8617342663864805   -0.3451635180001788  
 		   0.0001405584868324746  -4.984946922720697e-05   -0.0001405584873225008  4.984946923983408e-05     0.8617342663864804    -0.345163518000179     0.1382657336135196    0.3451635180001788  
1.07000000e+09      0.9995725491252501  -0.02376656029199779    1.6486521683186e-09  -6.984944302792322e-09   -0.0001436832794430611   5.1354609306837e-05   0.0001436832794430611  -5.135460930683698e-05  
 		   1.648652126767324e-09  -6.984944329241925e-09     0.9995725491259037  -0.02376656028834229   0.0001436832796849692  -5.135460946742167e-05   -0.0001436832796849691  5.13546094674217e-05  
 		   -0.0001429133311978967  5.114867090300751e-05   0.0001429133316971229  -5.114867091537505e-05     0.1405294264245771    0.3475198783955712     0.8594705735754228   -0.3475198783955712  
 		   0.0001429133311978967  -5.114867090300753e-05   -0.0001429133316971229  5.114867091537505e-05     0.8594705735754228   -0.3475198783955712     0.1405294264245771    0.3475198783955712  
1.08000000e+09       0.999564594149766  -0.02398870486055748   2.918773380468276e-09  -7.324723707448344e-09   -0.0001460622583457642  5.268097996959875e-05   0.0001460622583457642  -5.268097996959872e-05  
 		   2.918773337394947e-09  -7.324723736687164e-09     0.9995645941503688  -0.02398870485686925   0.0001460622585931251  -5.268098012865199e-05   -0.0001460622585931251  5.268098012865198e-05  
 		   -0.000145280216124643  5.246719779438988e-05   0.0001452802166334063  -5.246719780574766e-05     0.1428027565051892     0.349855548230607     0.8571972434948106   -0.3498555482306069  
 		   0.000145280216124643  -5.246719779438986e-05   -0.0001452802166334063  5.246719780574764e-05     0.8571972434948107    -0.349855548230607     0.1428027565051893    0.3498555482306068  
1.09000000e+09      0.9995565656588725   -0.0242108399677311   4.199707127361035e-09  -7.676103722436793e-09   -0.0001484531096154915  5.402683427431101e-05   0.0001484531096154914  -5.402683427431101e-05  
 		   4.199707082896513e-09  -7.676103746964616e-09     0.9995565656595018  -0.02421083996400894   0.0001484531098658184  -5.402683443905384e-05   -0.0001484531098658184  5.402683443905384e-05  
 		   -0.0001476589374564094  5.380507407878593e-05   0.0001476589379722474  -5.380507409635928e-05     0.1450854885446897    0.3521705152346432     0.8549145114553102   -0.3521705152346432  
 		   0.0001476589374564094  -5.380507407878593e-05   -0.0001476589379722474  5.380507409635929e-05     0.8549145114553102   -0.3521705152346432     0.1450854885446897    0.3521705152346432  
1.10000000e+09      0.9995484636671473  -0.02443296561959136   5.492181640081579e-09  -8.039356499442265e-09   -0.0001508556284713964  5.539219385551567e-05   0.0001508556284713964  -5.539219385551566e-05  
 		   5.492181593975363e-09  -8.03935652901262e-09     0.9995484636678365  -0.02443296561583462   0.0001508556287234778  -5.539219402939073e-05   -0.0001508556287234778  5.539219402939073e-05  
 		   -0.0001500492919395639  5.516232133509328e-05   0.0001500492924612827  -5.516232136234982e-05     0.1473773883004883    0.3544647701954481     0.8526226116995114   -0.3544647701954483  
 		   0.0001500492919395639  -5.516232133509329e-05   -0.0001500492924612827  5.516232136234983e-05     0.8526226116995116   -0.3544647701954481     0.1473773883004885    0.3544647701954483  
1.11000000e+09      0.9995402881886397   -0.0246550818197771   6.796907553847807e-09  -8.414757301770221e-09   -0.0001532696111143488  5.677707765960404e-05   0.0001532696111143486  -5.677707765960405e-05  
 		   6.796907506316669e-09  -8.414757324910375e-09     0.9995402881894222  -0.02465508181598552   0.0001532696113671968  -5.6777077845325e-05   -0.0001532696113671968  5.677707784532503e-05  
 		   -0.0001524510772949024  5.653895847404784e-05   0.000152451077821532  -5.653895851372964e-05     0.1496782226395732     0.356738306922296     0.8503217773604266    -0.356738306922296  
 		   0.0001524510772949024  -5.653895847404784e-05   -0.000152451077821532  5.653895851372966e-05     0.8503217773604268    -0.356738306922296     0.1496782226395734     0.356738306922296  
1.12000000e+09      0.9995320392380163  -0.02487718856958593   8.11457884082825e-09  -8.802584511458507e-09   -0.0001556948547233769  5.818150208758896e-05   0.0001556948547233769  -5.818150208758895e-05  
 		   8.114578791518585e-09  -8.802584541946179e-09     0.9995320392386547  -0.02487718856576307   0.0001556948549849779  -5.818150226298525e-05   -0.0001556948549849779  5.818150226298522e-05  
 		   -0.0001548640922139893  5.79350018801559e-05   0.0001548640927534946  -5.793500191025372e-05     0.1519877595790606    0.3589911222084882     0.8480122404209393   -0.3589911222084881  
 		   0.0001548640922139893  -5.793500188015587e-05   -0.0001548640927534946  5.793500191025375e-05     0.8480122404209393   -0.3589911222084882     0.1519877595790609    0.3589911222084881  
1.13000000e+09      0.9995237168297708  -0.02509928586809225   9.445873697210757e-09  -9.203119592899652e-09   -0.0001581311575169656  5.96054809521502e-05   0.0001581311575169656  -5.960548095215017e-05  
 		   9.445873646321957e-09  -9.203119620550971e-09     0.9995237168304526  -0.02509928586423524   0.0001581311577809122  -5.960548113509256e-05   -0.0001581311577809122  5.960548113509259e-05  
 		   -0.0001572881364200832  5.935046536890933e-05   0.0001572881369660963  -5.935046540724011e-05     0.1543057683258948    0.3612232157932098     0.8456942316741051   -0.3612232157932097  
 		   0.0001572881364200832  -5.935046536890933e-05   -0.0001572881369660963  5.935046540724013e-05     0.8456942316741052   -0.3612232157932097     0.1543057683258951    0.3612232157932098  
1.14000000e+09      0.9995153209785039  -0.02532137371224296   1.079145537722843e-08  -9.616647051497865e-09   -0.0001605783187775901  6.104902553707436e-05   0.0001605783187775901  -6.104902553707432e-05  
 		   1.079145532467291e-08  -9.616647078613221e-09     0.9995153209790983   -0.0253213737083538   0.0001605783190484361  -6.104902571517057e-05   -0.0001605783190484361  6.10490257151705e-05  
 		   -0.0001597230106924627  6.078536024582427e-05   0.0001597230112495285  -6.078536028010751e-05     0.1566320193147479     0.363434590323745      0.843367980685252   -0.3634345903237448  
 		   0.0001597230106924627  -6.078536024582424e-05   -0.0001597230112495285  6.078536028010747e-05     0.8433679806852521    -0.363434590323745     0.1566320193147479    0.3634345903237448  
1.15000000e+09      0.9995068516990404  -0.02554345209694981   1.215197296218982e-08  -1.00434544362626e-08   -0.0001630361388794346  6.251214464371006e-05   0.0001630361388794346  -6.251214464371008e-05  
 		   1.215197290787752e-08  -1.004345446497938e-08     0.9995068516997074  -0.02554345209302616   0.000163036139151712  -6.251214483191214e-05   -0.0001630361391517119  6.251214483191216e-05  
 		   -0.0001621685168939179  6.223969535258741e-05   0.0001621685174566032  -6.223969539773603e-05     0.1589662842461481    0.3656252513159595     0.8410337157538517   -0.3656252513159597  
 		   0.0001621685168939179  -6.223969535258741e-05   -0.0001621685174566032  6.223969539773604e-05     0.8410337157538519   -0.3656252513159595     0.1589662842461486    0.3656252513159596  
1.16000000e+09       0.999498309006392  -0.02576552101517985   1.35280620976529e-08  -1.04838322933691e-08   -0.0001655044193216508  6.39948446209234e-05   0.0001655044193216508  -6.399484462092342e-05  
 		   1.352806204148789e-08  -1.0483832325988e-08     0.9994983090070662  -0.02576552101122242   0.0001655044195973448  -6.399484481386529e-05   -0.0001655044195973447  6.399484481386525e-05  
 		   -0.0001646244580037667  6.371347709677485e-05   0.0001646244585740598  -6.371347714749453e-05     0.1613083361223613    0.3677952071156683     0.8386916638776389   -0.3677952071156683  
 		   0.0001646244580037667  -6.371347709677489e-05   -0.0001646244585740598  6.371347714749453e-05     0.8386916638776386   -0.3677952071156683     0.1613083361223608    0.3677952071156683  
1.17000000e+09       0.999489692915362  -0.02598758045804745   1.492034568007724e-08  -1.093807414001089e-08   -0.0001679829627738863  6.54971293600988e-05   0.0001679829627738863  -6.549712936009876e-05  
 		   1.492034562214877e-08  -1.093807417110196e-08      0.999489692916099  -0.02598758045405565   0.0001679829630511522  -6.549712956271148e-05   -0.0001679829630511523  6.549712956271146e-05  
 		   -0.0001670906381630928  6.520670944680153e-05   0.0001670906387391654  -6.520670950804276e-05     0.1636579492828887     0.369944468858961     0.8363420507171114   -0.3699444688589611  
 		   0.0001670906381630928  -6.52067094468015e-05   -0.0001670906387391654  6.520670950804277e-05     0.8363420507171114    -0.369944468858961     0.1636579492828886    0.3699444688589611  
1.18000000e+09      0.9994810034412973  -0.02620963041488225   1.632943449642054e-08  -1.140647645625579e-08   -0.0001704715730779245  6.70190004054557e-05   0.0001704715730779244  -6.701900040545576e-05  
 		   1.632943443672332e-08  -1.140647648415707e-08     0.9994810034419237  -0.02620963041085905   0.000170471573363382  -6.701900060028096e-05   -0.0001704715733633819  6.701900060028103e-05  
 		   -0.0001695668626762801  6.671939404158651e-05   0.0001695668632647329  -6.671939409602427e-05     0.1660148994389665    0.3720730504321506      0.833985100561033   -0.3720730504321507  
 		   0.0001695668626762801  -6.671939404158648e-05   -0.0001695668632647329  6.671939409602428e-05     0.8339851005610335   -0.3720730504321507      0.166014899438967    0.3720730504321507  
1.19000000e+09      0.9994722405992158  -0.02643167087332105   1.775592783661483e-08  -1.188933864255767e-08   -0.00017297005530983  6.856045690114313e-05    0.00017297005530983  -6.856045690114316e-05  
 		   1.775592777493148e-08  -1.188933867507526e-08     0.9994722405998787  -0.02643167086926363   0.0001729700555976731  -6.856045710357173e-05   -0.000172970055597673  6.856045710357172e-05  
 		   -0.000172052938072798  6.825153013784403e-05   0.0001720529386678609  -6.825153020083038e-05      0.168378963706578     0.374180968431916     0.8316210362934223    -0.374180968431916  
 		   0.000172052938072798  -6.8251530137844e-05   -0.0001720529386678609  6.825153020083034e-05     0.8316210362934221    -0.374180968431916     0.1683789637065778     0.374180968431916  
1.20000000e+09      0.9994634044044447   -0.0266537018193695   1.920041406292091e-08  -1.238696299997039e-08   -0.000175478215783789  7.012149569082357e-05   0.000175478215783789  -7.012149569082358e-05  
 		   1.920041399943086e-08  -1.238696302774718e-08     0.9994634044051842  -0.02665370181527763   0.0001754782160726744  -7.012149590432887e-05   -0.0001754782160726744  7.012149590432885e-05  
 		   -0.0001745486721109405  6.980311470906444e-05   0.0001745486727112848  -6.980311478409633e-05     0.1707499206391341    0.3762682421243884     0.8292500793608657   -0.3762682421243882  
 		   0.0001745486721109405  -6.980311470906448e-05   -0.0001745486727112848  6.980311478409634e-05     0.8292500793608658   -0.3762682421243884     0.1707499206391343    0.3762682421243882  
1.21000000e+09      0.9994544948726978  -0.02687572323747081   2.066347114380556e-08  -1.289965471674354e-08   -0.0001779958620761799  7.170211136108249e-05   0.0001779958620761799  -7.170211136108248e-05  
 		   2.066347107829174e-08  -1.289965474692939e-08      0.999454494873377  -0.02687572323334659   0.0001779958623713433  -7.17021115721538e-05   -0.0001779958623713433  7.170211157215383e-05  
 		   -0.0001770538738017067  7.137414248862089e-05   0.0001770538744125521  -7.137414256230229e-05     0.1731275502581644    0.3783348934050771      0.826872449741836   -0.3783348934050769  
 		   0.0001770538738017067  -7.137414248862088e-05   -0.0001770538744125521  7.137414256230233e-05     0.8268724497418357   -0.3783348934050771      0.173127550258164    0.3783348934050769  
1.22000000e+09      0.9994455120193624  -0.02709773511058341   2.214566716716968e-08  -1.342772182343053e-08   -0.0001805228030797052  7.330229620479757e-05   0.0001805228030797053  -7.330229620479756e-05  
 		   2.214566709969997e-08  -1.342772185167415e-08     0.9994455120201124  -0.02709773510642462   0.0001805228033759141  -7.330229642690993e-05   -0.000180522803375914  7.330229642690995e-05  
 		   -0.000179568353462609  7.296460593325542e-05   0.0001795683540787547  -7.296460601903368e-05     0.1755116340840947    0.3803809467573052     0.8244883659159051    -0.380380946757305  
 		   0.000179568353462609  -7.296460593325542e-05   -0.0001795683540787547  7.296460601903369e-05     0.8244883659159051   -0.3803809467573052     0.1755116340840948     0.380380946757305  
1.23000000e+09      0.9994364558602147  -0.02731973742023166   2.364756081472807e-08  -1.397147517767898e-08   -0.0001830588490007006  7.492204033010618e-05   0.0001830588490007005  -7.492204033010614e-05  
 		   2.364756074517086e-08  -1.397147520767004e-08     0.9994364558609017  -0.02731973741604059   0.0001830588493033445  -7.492204054957653e-05   -0.0001830588493033444  7.492204054957654e-05  
 		   -0.0001820919227149234  7.457449533138213e-05   0.000182091923341741  -7.457449541569124e-05     0.1779019551653666    0.3824064292111672      0.822098044834634    -0.382406429211167  
 		   0.0001820919227149234  -7.457449533138215e-05   -0.000182091923341741  7.457449541569128e-05     0.8220980448346334   -0.3824064292111672     0.1779019551653662     0.382406429211167  
1.24000000e+09      0.9994273264108641  -0.02754173014657543   2.516970181280088e-08  -1.453122843837926e-08   -0.0001856038114063875  7.656133163867643e-05   0.0001856038114063875  -7.656133163867644e-05  
 		   2.516970174112466e-08  -1.453122846942455e-08     0.9994273264116478  -0.02754173014234954   0.0001856038117090657  -7.656133187170992e-05   -0.0001856038117090656  7.656133187170991e-05  
 		   -0.0001846243945306505  7.620379878140817e-05   0.0001846243951617761  -7.620379888040865e-05     0.1802982981065544    0.3844113703022908     0.8197017018934458   -0.3844113703022909  
 		   0.0001846243945306505  -7.620379878140814e-05   -0.0001846243951617761  7.620379888040861e-05     0.8197017018934456   -0.3844113703022908     0.1802982981065544    0.3844113703022909  
1.25000000e+09      0.9994181236873881  -0.02776371326845582   2.671263135644885e-08  -1.510729804363029e-08   -0.0001881575032224723  7.822015592816894e-05   0.0001881575032224724  -7.822015592816894e-05  
