! Touchstone Ver. 1.0 
! Number of ports is 2
# Hz	S	RI	R	100.000000	50.000000	
! SCATTERING PARAMETERS  :
1.00000000e+09      0.9989104218316919  -0.04455698793842423     -0.403412673093942   -0.4751391592234209   -9.854446085772396e-05  6.697692375777922e-05    -0.2731145993908922     0.961329493307974  
1.01000000e+09       0.998888185987421  -0.04500263515621759    -0.4085553811096303   -0.4759835541669305   -9.988116681448504e-05  6.851748478898204e-05    -0.2638491125926115    0.9639047303910984  
1.02000000e+09       0.998865721252731  -0.04544826529644544    -0.4136745652162369    -0.476768611992901   -0.0001012149510274361  7.007160502035353e-05    -0.2546260375403885    0.9663731142362424  
1.03000000e+09      0.9988430275981592  -0.04589387812488937     -0.418769646335149   -0.4774953114887059   -0.0001025456875515725  7.163907877219564e-05    -0.2454464178362455    0.9687364093981531  
1.04000000e+09      0.9988201049978482  -0.04633947340435483    -0.4238400721152221   -0.4781646279564864   -0.0001038732562412165  7.321970112267811e-05    -0.2363112489167188    0.9709963741544146  
1.05000000e+09      0.9987969534294916  -0.04678505089493154    -0.4288853163658805   -0.4787775326587397   -0.0001051975426266405  7.481326802887262e-05    -0.2272214790787423    0.9731547595037996  
1.06000000e+09      0.9987735728742535  -0.04723061035420994    -0.4339048784834586   -0.4793349922926707   -0.0001065184377901734  7.641957644093996e-05    -0.2181780105112001    0.9752133082175303  
1.07000000e+09      0.9987499633166965  -0.04767615153747075    -0.4388982828768406   -0.4798379684873784   -0.0001078358382410512  7.803842441070049e-05    -0.2091817003290828    0.9771737539368691  
1.08000000e+09      0.9987261247447254  -0.04812167419792439     -0.443865078395105   -0.4802874173335386   -0.0001091496457912991  7.966961119489275e-05    -0.2002333616096592    0.9790378203200962  
1.09000000e+09        0.99870205714951  -0.04856717808683682     -0.448804837748092   -0.4806842889327432   -0.0001104597674301671  8.131293735150549e-05    -0.1913337644288441    0.9808072202368884  
1.10000000e+09      0.9986777605254147  -0.04901266295375179    -0.4537171569360729   -0.4810295269769497   -0.0001117661151998895  8.296820483219717e-05    -0.1824836368958046    0.9824836550062865  
1.11000000e+09      0.9986532348699328   -0.0494581285466672    -0.4586016546767411   -0.4813240683533938   -0.000113068606071862  8.463521706851443e-05    -0.1736836661853595    0.9840688136817554  
1.12000000e+09      0.9986284801836209  -0.04990357461211989    -0.4634579718308681   -0.4815688427643658   -0.0001143671618213178  8.631377905235641e-05    -0.1649344995657925     0.985564372376572  
1.13000000e+09      0.9986034964700117  -0.05034900089540489    -0.4682857708386796   -0.4817647723831873   -0.0001156617089055235  8.800369741271252e-05    -0.1562367454219172    0.9869719936337376  
1.14000000e+09      0.9985782837355766  -0.05079440714069042    -0.4730847351543603   -0.4819127715243234   -0.0001169521783408585  8.970478048657906e-05    -0.1475909742714514    0.9882933258350367  
1.15000000e+09      0.9985528419896281  -0.05123979309114707    -0.4778545686859935    -0.482013746337367   -0.0001182385055812312  9.141683838534638e-05    -0.1389977197740253    0.9895300026498545  
1.16000000e+09      0.9985271712442754  -0.05168515848908554    -0.4825949952415139   -0.4820685945224362   -0.0001195206303976007  9.313968305687436e-05    -0.1304574797316855    0.9906836425216142  
1.17000000e+09      0.9985012715143482  -0.05213050307604333    -0.4873057579759262   -0.4820782050652628   -0.0001207984967583349  9.487312834228858e-05    -0.1219707170802786     0.991755848192705  
1.18000000e+09      0.9984751428173184  -0.05257582659292918    -0.4919866188497182   -0.4820434579941807   -0.0001220720527114145  9.661699002962534e-05    -0.1135378608704118    0.9927482062633957  
1.19000000e+09      0.9984487851732708  -0.05302112878011222    -0.4966373580887786   -0.4819652241547221   -0.000123341250267497  9.837108590237503e-05    -0.1051593072376401    0.9936622867867091  
1.20000000e+09      0.9984221986047938  -0.05346640937752307    -0.5012577736536907   -0.4818443650016551   -0.0001246060452842494  0.000100135235784678   -0.09683542036075585    0.9944996428945557  
1.21000000e+09       0.998395383136949  -0.05391166812475402    -0.5058476807147304   -0.4816817324110276   -0.0001258663973526222  0.0001019092615823665   -0.08856653340796326    0.9952618104576283  
1.22000000e+09      0.9983683387972013   -0.0543569047611247    -0.5104069111324022   -0.4814781685072011   -0.0001271222696841641  0.0001036929873199629      -0.08035294947008    0.9959503077758415  
1.23000000e+09      0.9983410656153502  -0.05480211902577645    -0.5149353129477757   -0.4812345055085549   -0.0001283736290005186  0.000105486239174577   -0.07219494248027665    0.9965666352984188  
1.24000000e+09      0.9983135636234732  -0.05524731065777327    -0.5194327498823395   -0.4809515655873363   -0.0001296204454242798  0.0001072888455068457   -0.06409275811976217    0.9971122753707208  
1.25000000e+09       0.998285832855863  -0.05569247939610348    -0.5238991008374146   -0.4806301607433454   -0.0001308626923710033  0.0001091006368866401   -0.05604661470935021    0.9975886920118546  
1.26000000e+09      0.9982578733489715  -0.05613762497985385    -0.5283342594155663   -0.4802710926987658   -0.0001321003464449537  0.0001109214461186682   -0.04805670408605731    0.9979973307153167  
1.27000000e+09      0.9982296851413606  -0.05658274714817862     -0.532738133435924    -0.479875152796804   -0.000133333387333851  0.0001127511082619373   -0.04012319246472171    0.9983396182763449  
1.28000000e+09      0.9982012682736274  -0.05702784564040712    -0.5371106444675777    -0.479443121922577   -0.0001345617977078412  0.0001145894606483134   -0.03224622128425442    0.9986169626435026  
1.29000000e+09      0.9981726227883598  -0.05747292019608003     -0.541451727367386   -0.4789757704321126   -0.0001357855631191291  0.0001164363428974192   -0.02442590803823328    0.9988307527928622  
1.30000000e+09      0.9981437487300863  -0.05791797055501959    -0.5457613298295214   -0.4784738580943922   -0.0001370046719037939  0.0001182915969295938   -0.01666234708966169    0.9989823586231596  
1.31000000e+09      0.9981146461452091  -0.05836299645736218    -0.5500394119408308   -0.4779381340454242   -0.0001382191150855374  0.0001201550669755437   -0.008955610469780505    0.9990731308737039  
1.32000000e+09      0.9980853150819683  -0.05880799764360858    -0.5542859457458854   -0.4773693367555856   -0.0001394288862819171  0.0001220265995837009   -0.001305748660705278    0.9991044010630633  
1.33000000e+09      0.9980557555903614  -0.05925297385467561    -0.5585009148239736   -0.4767681940023628   -0.0001406339816113745  0.0001239060436261755   0.006287208638192247    0.9990774814426255  
1.34000000e+09      0.9980259677221375  -0.05969792483192018    -0.5626843138709353   -0.4761354228568198   -0.0001418343996029646  0.0001257932503013654    0.01382325176016583    0.9989936649722663  
1.35000000e+09      0.9979959515307055  -0.06014285031720155    -0.5668361482932649   -0.4754717296818943   -0.0001430301411087655  0.0001276880731351923    0.02130239033737208    0.9988542253131165  
1.36000000e+09      0.9979657070711101  -0.06058775005285608    -0.5709564338074804   -0.4747778101298068   -0.0001442212092155619  0.0001295903679797743     0.0287246525834421    0.9986604168326952  
1.37000000e+09      0.9979352343999761  -0.06103262378182514     -0.575045196055345   -0.4740543491661203   -0.0001454076091633876  0.0001314999930112733    0.03609008459254769    0.9984134746328789  
1.38000000e+09      0.9979045335754686  -0.06147747124757975    -0.5791024702193975   -0.4733020210786715   -0.0001465893482596939  0.0001334168087246303     0.0433987496545524    0.9981146145830908  
1.39000000e+09      0.9978736046572403  -0.06192229219423014    -0.5831283006552787   -0.4725214895170718   -0.000147766435801701  0.0001353406779277306    0.05065072758670709    0.9977650333770949  
1.40000000e+09      0.9978424477063925  -0.06236708636650646    -0.5871227405288876   -0.4717134075210855   -0.0001489388829957377  0.0001372714657336512    0.05784611408118837    0.9973659085941555  
1.41000000e+09      0.9978110627854379  -0.06281185350979156    -0.5910858514619001   -0.4708784175696371   -0.000150106702882096  0.0001392090395507172    0.06498502006909684    0.9969183987807047  
1.42000000e+09      0.9977794499582401  -0.06325659337014256    -0.5950177031894158   -0.4700171516260415   -0.0001512699102592595  0.0001411532690724028    0.07206757110002994    0.9964236435364505  
1.43000000e+09      0.9977476092899876  -0.06370130569431315    -0.5989183732238536   -0.4691302311959446   -0.0001524285216116449  0.0001431040262650248    0.07909390673773738    0.9958827636161939  
1.44000000e+09      0.9977155408471641  -0.06414599022975863    -0.6027879465276882   -0.4682182673873078   -0.000153582555038308  0.0001450611853543241    0.08606417997134067    0.9952968610399586  
1.45000000e+09      0.9976832446974897  -0.06459064672467993    -0.6066265151967989   -0.4672818609800723   -0.0001547320301847396  0.0001470246228112893    0.09297855664217758    0.9946670192142603  
1.46000000e+09       0.997650720909892  -0.06503527492799524    -0.6104341781490443   -0.4663216024928034   -0.0001558769681741959  0.0001489942173363179    0.09983721488571184    0.9939943030592467  
1.47000000e+09      0.9976179695544725  -0.06547987458940119    -0.6142110408247126   -0.4653380722660577   -0.0001570173915443001  0.0001509698498428024     0.1066403445890899     0.993279759149715  
1.48000000e+09      0.9975849907024555  -0.06592444545931825    -0.6179572148912202   -0.4643318405343864   -0.000158153324180933  0.0001529514034393298     0.1133881468629302    0.9925244158566101  
1.49000000e+09       0.997551784426181  -0.06636898728898677    -0.6216728179624539   -0.4633034675197993   -0.0001592847912590072  0.000154938763412045     0.1200808335285912    0.9917292835032016  
1.50000000e+09      0.9975183507990576  -0.06681349983039631    -0.6253579733177045   -0.4622535035142809   -0.0001604118191805292   0.00015693181720448     0.1267186266194577    0.9908953545230027  
1.51000000e+09      0.9974846898955145  -0.06725798283636505    -0.6290128096374933   -0.4611824889759666   -0.0001615344355176342  0.0001589304543986956     0.1333017578967554    0.9900236036261882  
1.52000000e+09      0.9974508017909971  -0.06770243606045695    -0.6326374607366448    -0.460090954620216   -0.0001626526689544968  0.0001609345666930996     0.1398304683793958    0.9891149879712493  
1.53000000e+09      0.9974166865619094  -0.06814685925707481    -0.6362320653167171   -0.4589794215226527   -0.0001637665492340044  0.0001629440478825479     0.1463050078877212    0.9881704473424463  
1.54000000e+09      0.9973823442856162  -0.06859125218140871    -0.6397967667177338   -0.4578484012134766   -0.0001648761071024176  0.0001649587938360454     0.1527256346003558    0.9871909043288435  
1.55000000e+09      0.9973477750403813  -0.06903561458948421    -0.6433317126810097   -0.4566983957891646   -0.0001659813742601247  0.0001669787024742624      0.159092614625469    0.9861772645148994  
1.56000000e+09      0.9973129789053604  -0.06947994623810805    -0.6468370551155916   -0.4555298980110241   -0.0001670823833093492  0.0001690036737462279      0.165406221584043    0.9851304166676238  
1.57000000e+09      0.9972779559605665  -0.06992424688493057    -0.6503129498782872   -0.4543433914162005   -0.0001681791677067418  0.0001710336096069918     0.1716667362064876    0.9840512329308758  
1.58000000e+09      0.9972427062868445  -0.07036851628839737    -0.6537595565531266   -0.4531393504257058   -0.0001692717617157365  0.0001730684139928972     0.1778744459419034    0.9829405690230535  
1.59000000e+09      0.9972072299658471  -0.07081275420777161    -0.6571770382430204   -0.4519182404555607   -0.000170360200361091  0.0001751079927980145     0.1840296445794745    0.9817992644364818  
1.60000000e+09      0.9971715270800048  -0.07125696040316523    -0.6605655613687464   -0.4506805180297457   -0.000171444519385048  0.0001771522538504452     0.1901326318819307    0.9806281426394041  
1.61000000e+09      0.9971355977125168  -0.07170113463545126    -0.6639252954653069   -0.4494266308936953   -0.0001725247552042335  0.0001792011068856256     0.1961837132314247    0.9794280112831092  
1.62000000e+09      0.9970994419473016   -0.0721452766663582    -0.6672564129993331   -0.4481570181283225   -0.0001736009448685522  0.000181254463523833      0.202183199285861    0.9781996624053743  
1.63000000e+09      0.9970630598690071  -0.07258938625841035    -0.6705590891803973    -0.446872110265488   -0.0001746731260209563  0.0001833122372437435     0.2081314056474708    0.9769438726403114  
1.64000000e+09      0.9970264515629567  -0.07303346317495356    -0.6738335017849361   -0.4455723294057902   -0.0001757413368593718  0.0001853743433577074     0.2140286525421626    0.9756614034281117  
1.65000000e+09      0.9969896171151549  -0.07347750718012376    -0.6770798309826269   -0.4442580893330199   -0.0001768056160985342  0.0001874406989860092       0.21987526450946    0.9743530012249053  
1.66000000e+09      0.9969525566122526  -0.07392151803887778    -0.6802982591720358   -0.4429297956350636   -0.0001778660029351169  0.0001895112230317811      0.225671570103446    0.9730193977156163  
1.67000000e+09      0.9969152701415258   -0.0743654955169476    -0.6834889708183091   -0.4415878458162816   -0.0001789225370111533  0.0001915858361551734      0.231417901603155    0.9716613100236834  
1.68000000e+09      0.9968777577908704  -0.07480943938091821    -0.6866521523028095   -0.4402326294222675   -0.0001799752583828379  0.000193664460748822     0.2371145947340711    0.9702794409258959  
1.69000000e+09      0.9968400196487709  -0.07525334939808367    -0.6897879917649992   -0.4388645281505344   -0.0001810242074852967  0.0001957470209099155     0.2427619883986091    0.9688744790637841  
1.70000000e+09      0.9968020558042918  -0.07569722533657031    -0.6928966789665444   -0.4374839159739131   -0.000182069425103482  0.0001978334424169202      0.248360424416445    0.9674470991564548  
1.71000000e+09      0.9967638663470439  -0.07614106696530708    -0.6959784051509309   -0.4360911592570227   -0.0001831109523415247  0.0001999236527036557     0.2539102472740278    0.9659979622126873  
1.72000000e+09      0.9967254513671906  -0.07658487405395369    -0.6990333629051483   -0.4346866168707753   -0.000184148830592387  0.000202017580832574     0.2594118038831151    0.9645277157425065  
1.73000000e+09      0.9966868109554237  -0.07702864637297388    -0.7020617460351469   -0.4332706403157031   -0.0001851831015120821  0.0002041151574704131     0.2648654433487259    0.9630369939704775  
1.74000000e+09      0.9966479452029458  -0.07747238369356978    -0.7050637494385591   -0.4318435738323596   -0.0001862138069904028  0.0002062163148622749     0.2702715167444321    0.9615264180436008  
1.75000000e+09      0.9966088542014466  -0.07791608578771776    -0.7080395689874103   -0.4304057545213024   -0.0001872409891262662  0.0002083209868069391     0.2756303768970529    0.9599965962423412  
1.76000000e+09       0.996569538043107  -0.07835975242816791    -0.7109894014129508   -0.4289575124600883   -0.0001882646902031142  0.0002104291086316778     0.2809423781793318    0.9584481241900136  
1.77000000e+09      0.9965299968205759  -0.07880338338837957    -0.7139134441916631   -0.4274991708139881   -0.000189284952663175  0.0002125406171664886     0.2862078763098758    0.9568815850588241  
1.78000000e+09      0.9964902306269569  -0.07924697844256216    -0.7168118954414241   -0.4260310459544072   -0.000190301819085818  0.0002146554507199014     0.2914272281615984    0.9552975497775693  
1.79000000e+09      0.9964502395557965  -0.07969053736566167    -0.7196849538186757   -0.4245534475715368   -0.0001913153321649514  0.0002167735490542331     0.2966007915770946    0.9536965772361051  
1.80000000e+09      0.9964100237010747   -0.0801340599333787    -0.7225328184219503   -0.4230666787873446   -0.0001923255346878133  0.0002188948533617548      0.301728925191209    0.9520792144882536  
1.81000000e+09      0.9963695831571867  -0.08057754592209947    -0.7253556886931317   -0.4215710362666269   -0.0001933324695138893  0.0002210193062389843     0.3068119882610802    0.9504459969545036  
1.82000000e+09      0.9963289180189407  -0.08102099510891048    -0.7281537643284051   -0.4200668103272629   -0.0001943361795549864  0.0002231468516632265     0.3118503405023955    0.9487974486211381  
1.83000000e+09      0.9962880283815465  -0.08146440727165383    -0.7309272451947847   -0.4185542850553374   -0.0001953367077583562  0.0002252774349695309     0.3168443419332314    0.9471340822405647  
1.84000000e+09      0.9962469143405879  -0.08190778218884866    -0.7336763312427119   -0.4170337384087641   -0.0001963340970863912  0.0002274110028260685     0.3217943527230744    0.9454563995259713  
1.85000000e+09      0.9962055759920418  -0.08235111963967894    -0.7364012224255486    -0.415505442325492   -0.0001973283904992884  0.0002295475032104652     0.3267007330488108    0.9437648913463723  
1.86000000e+09      0.9961640134322441  -0.08279441940405941    -0.7391021186271866   -0.4139696628363445   -0.0001983196309407466  0.0002316868853876795      0.331563842957363    0.9420600379213998  
1.87000000e+09      0.9961222267578951  -0.08323768126254429     -0.741779219583952   -0.4124266601637555   -0.0001993078613192132  0.0002338290998858899      0.336384042232611    0.9403423090094591  
1.88000000e+09      0.9960802160660427  -0.08368090499637564    -0.7444327248176368   -0.4108766888308692   -0.0002002931244944182  0.0002359740984746035     0.3411616902694123    0.9386121640979703  
1.89000000e+09      0.9960379814540697  -0.08412409038748059    -0.7470628335688152    -0.409319997763484   -0.0002012754632622794  0.0002381218341424878      0.345897145952251    0.9368700525889733  
1.90000000e+09      0.9959955230197153  -0.08456723721840298    -0.7496697447281411   -0.4077568303938433   -0.00020225492034116  0.0002402722610734605     0.3505907675403261    0.9351164139855702  
1.91000000e+09       0.995952840861017  -0.08501034527235891    -0.7522536567799967   -0.4061874247591402   -0.000203231538357954  0.0002424253346267436     0.3552429125559886    0.9333516780713179  
1.92000000e+09      0.9959099350763491  -0.08545341433322919    -0.7548147677433812   -0.4046120136030363   -0.000204205359835962  0.0002445810113148693     0.3598539376796502    0.9315762650913779  
1.93000000e+09      0.9958668057644025  -0.08589644418547299     -0.757353275110688   -0.4030308244745354   -0.0002051764271824141  0.0002467392487803581     0.3644241986497024    0.9297905859317058  
1.94000000e+09      0.9958234530241581   -0.0863394346142322    -0.7598693758020156   -0.4014440798261076   -0.0002061447826778035  0.0002489000057772608     0.3689540501659495    0.9279950422930113  
1.95000000e+09      0.9957798769549067  -0.08678238540522337    -0.7623632661079648   -0.3998519971063241   -0.0002071104684630726  0.0002510632421482762     0.3734438457980473    0.9261900268636145  
1.96000000e+09       0.995736077656227  -0.08722529634482712    -0.7648351416472052   -0.3982547888589131   -0.0002080735265311826  0.0002532289188060017     0.3778939378987672    0.9243759234911404  
1.97000000e+09      0.9956920552279909  -0.08766816722000499    -0.7672851973159783    -0.396652662812331   -0.0002090339987153163  0.0002553969977113238     0.3823046775207514    0.9225531073499823  
1.98000000e+09      0.9956478097703507  -0.08811099781830407    -0.7697136272445421   -0.3950458219760206   -0.0002099919266809212  0.0002575674418531499     0.3866764143386636    0.9207219451095636  
